#,Time,Δt,Sender,Slave,Function code,Payload (HEX),Bytes,CRC
61,04:24:20.507,—,MASTER,0x83,"Write Single Reg","83 06 00 72 00 01 F6 33",8,OK
62,04:24:20.529,+23 ms,ERR,0x83,"Write Single Reg","83 06 00 72 00 01 F6 33 83 03 00 FA 00 10 7A 15",16,ERR
63,04:24:20.587,+57 ms,ERR,0x83,"Read Holding Regs","83 03 20 00 34 00 2E 00 33 00 35 00 2E 00 35 00 00 00 00 00 00 00 00 00 00 00 00 00 00 00 00 00 00 00 00 41 40 83 06 00 5B 00 14 E6 34",45,ERR
64,04:24:20.609,+22 ms,ERR,0x83,"Write Single Reg","83 06 00 5B 00 14 E6 34 83 06 00 71 00 00 C7 F3",16,ERR
65,04:24:20.633,+24 ms,ERR,0x83,"Write Single Reg","83 06 00 71 00 00 C7 F3 83 06 00 F5 00 00 87 DA",16,ERR
66,04:24:20.670,+37 ms,ERR,0x83,"Write Single Reg","83 06 00 F5 00 00 87 DA 83 46 18 0D 04 01 18 04 01 00 00 01 0F 00 00 01 00 D2 1F",27,ERR
67,04:24:20.683,+13 ms,MASTER,0x83,"FM Event Config","83 46 18 02 09 00 37 17",8,OK
68,04:24:20.714,+30 ms,SLAVE,0x83,"Read Holding Regs","83 03 00 61 00 01 CB F6",8,OK
69,04:24:20.741,+27 ms,MASTER,0xFD,"FM Event Request","FD 46 10 00 4F 00 00 C9 7D",9,OK
70,04:24:20.758,+17 ms,SLAVE,0x—,"FM Arbitration","FF FF FF FF FF",5,N/A
71,04:24:20.986,+228 ms,TIMEOUT,0x83,"Fast Modbus","",0,ERR
72,04:24:21.001,+16 ms,MASTER,0xFD,"FM Event Request","FD 46 10 83 4F 83 01 40 09",9,OK
73,04:24:21.018,+16 ms,SLAVE,0x—,"FM Arbitration","FF FF FF FF FF",5,N/A
74,04:24:21.028,+10 ms,SLAVE,0xFD,"FM Event Confirm","FD 46 12 52 5D",5,OK
75,04:24:21.057,+29 ms,MASTER,0x83,"Read Holding Regs","83 03 00 62 00 01 3B F6",8,OK
76,04:24:21.080,+23 ms,ERR,0x83,"Read Holding Regs","83 03 02 00 1E 40 52 83 04 00 03 00 09 DE 2E",15,ERR
77,04:24:21.130,+50 ms,ERR,0x83,"Read Input Regs","83 04 12 10 34 0C 07 07 1B FF FE FF FE 01 D2 00 00 00 00 00 92 66 CA 83 04 01 0E 00 0E 0F D3",31,ERR
78,04:24:21.202,+72 ms,MASTER,0xFD,"FM Event Request","FD 46 10 00 4F 00 00 C9 7D",9,OK
79,04:24:21.218,+16 ms,SLAVE,0x—,"FM Arbitration","FF FF FF FF FF",5,N/A
80,04:24:21.229,+11 ms,SLAVE,0xFD,"FM Event Confirm","FD 46 12 52 5D",5,OK
81,04:24:21.258,+29 ms,MASTER,0x83,"Read Coils","83 01 00 00 00 0C 22 2D",8,OK
82,04:24:21.270,+12 ms,SLAVE,0x83,"Read Coils","83 01 02 08 00 C6 22",7,OK
83,04:24:21.283,+13 ms,MASTER,0x83,"Read Coils","83 01 13 89 00 01 36 86",8,OK
84,04:24:21.305,+23 ms,ERR,0x83,"Read Coils","83 01 01 00 79 F0 83 01 14 B4 00 07 26 3C",14,ERR
85,04:24:21.327,+22 ms,ERR,0x83,"Read Coils","83 01 01 00 79 F0 83 03 00 61 00 02 8B F7",14,ERR
86,04:24:21.353,+26 ms,ERR,0x83,"Read Holding Regs","83 03 04 00 03 00 1E 28 33 83 04 00 03 00 09 DE 2E",17,ERR
87,04:24:21.406,+53 ms,MASTER,0xFD,"FM Event Request","FD 46 10 00 4F 00 00 C9 7D",9,OK
88,04:24:21.422,+16 ms,SLAVE,0x—,"FM Arbitration","FF FF FF FF FF",5,N/A
89,04:24:21.433,+11 ms,SLAVE,0xFD,"FM Event Confirm","FD 46 12 52 5D",5,OK
90,04:24:21.462,+29 ms,MASTER,0x83,"Read Input Regs","83 04 01 0E 00 0E 0F D3",8,OK
91,04:24:21.520,+58 ms,ERR,0x83,"Read Input Regs","83 04 1C 00 06 24 66 FF FE FF FE FF FE FF FE FF FE FF FE FF FE 03 F5 00 12 07 FF 00 0A 00 0E 8A E9 83 01 00 00 00 0C 22 2D",41,ERR
92,04:24:21.541,+22 ms,ERR,0x83,"Read Coils","83 01 02 08 00 C6 22 83 01 13 89 00 01 36 86",15,ERR
93,04:24:21.563,+22 ms,ERR,0x83,"Read Coils","83 01 01 00 79 F0 83 01 14 B4 00 07 26 3C",14,ERR
94,04:24:21.605,+42 ms,MASTER,0xFD,"FM Event Request","FD 46 10 00 4F 00 00 C9 7D",9,OK
95,04:24:21.621,+16 ms,SLAVE,0x—,"FM Arbitration","FF FF FF FF FF",5,N/A
96,04:24:21.632,+11 ms,SLAVE,0xFD,"FM Event Confirm","FD 46 12 52 5D",5,OK
97,04:24:21.661,+29 ms,MASTER,0x83,"Read Holding Regs","83 03 00 61 00 02 8B F7",8,OK
98,04:24:21.686,+25 ms,ERR,0x83,"Read Holding Regs","83 03 04 00 03 00 1E 28 33 83 04 00 03 00 09 DE 2E",17,ERR
99,04:24:21.735,+49 ms,ERR,0x83,"Read Input Regs","83 04 12 10 5D 0C 09 07 17 FF FE FF FE 01 D2 00 00 00 00 00 92 07 4E 83 04 01 0E 00 0E 0F D3",31,ERR
100,04:24:21.805,+70 ms,MASTER,0xFD,"FM Event Request","FD 46 10 00 4F 00 00 C9 7D",9,OK
101,04:24:21.822,+17 ms,SLAVE,0x—,"FM Arbitration","FF FF FF FF FF",5,N/A
102,04:24:21.832,+10 ms,SLAVE,0xFD,"FM Event Confirm","FD 46 12 52 5D",5,OK
103,04:24:21.862,+30 ms,MASTER,0x83,"Read Coils","83 01 00 00 00 0C 22 2D",8,OK
104,04:24:21.884,+22 ms,ERR,0x83,"Read Coils","83 01 02 08 00 C6 22 83 01 13 89 00 01 36 86",15,ERR
105,04:24:21.906,+22 ms,ERR,0x83,"Read Coils","83 01 01 00 79 F0 83 01 14 B4 00 07 26 3C",14,ERR
106,04:24:21.926,+20 ms,ERR,0x83,"Read Coils","83 01 01 00 79 F0 83 03 00 61 00 02 8B F7",14,ERR
107,04:24:21.951,+25 ms,ERR,0x83,"Read Holding Regs","83 03 04 00 03 00 1E 28 33 83 04 00 03 00 09 DE 2E",17,ERR
108,04:24:22.007,+55 ms,MASTER,0xFD,"FM Event Request","FD 46 10 00 4F 00 00 C9 7D",9,OK
109,04:24:22.022,+16 ms,SLAVE,0x—,"FM Arbitration","FF FF FF FF FF",5,N/A
110,04:24:22.033,+11 ms,SLAVE,0xFD,"FM Event Confirm","FD 46 12 52 5D",5,OK
111,04:24:22.062,+29 ms,MASTER,0x83,"Read Input Regs","83 04 01 0E 00 0E 0F D3",8,OK
112,04:24:22.117,+55 ms,ERR,0x83,"Read Input Regs","83 04 1C 00 06 24 66 FF FE FF FE FF FE FF FE FF FE FF FE FF FE 03 F5 00 12 08 06 00 0A 00 0D 56 03 83 01 00 00 00 0C 22 2D",41,ERR
113,04:24:22.139,+22 ms,ERR,0x83,"Read Coils","83 01 02 08 00 C6 22 83 01 13 89 00 01 36 86",15,ERR
114,04:24:22.160,+22 ms,ERR,0x83,"Read Coils","83 01 01 00 79 F0 83 01 14 B4 00 07 26 3C",14,ERR
115,04:24:22.206,+46 ms,MASTER,0xFD,"FM Event Request","FD 46 10 00 4F 00 00 C9 7D",9,OK
116,04:24:22.222,+16 ms,SLAVE,0x—,"FM Arbitration","FF FF FF FF FF",5,N/A
117,04:24:22.233,+11 ms,SLAVE,0xFD,"FM Event Confirm","FD 46 12 52 5D",5,OK
118,04:24:22.262,+29 ms,MASTER,0x83,"Read Holding Regs","83 03 00 61 00 02 8B F7",8,OK
119,04:24:22.289,+26 ms,ERR,0x83,"Read Holding Regs","83 03 04 00 03 00 1E 28 33 83 04 00 03 00 09 DE 2E",17,ERR
120,04:24:22.337,+48 ms,ERR,0x83,"Read Input Regs","83 04 12 0F FD 0C 09 07 1A FF FE FF FE 01 D2 00 00 00 00 00 92 5B F3 83 04 01 0E 00 0E 0F D3",31,ERR
121,04:24:22.406,+69 ms,MASTER,0xFD,"FM Event Request","FD 46 10 00 4F 00 00 C9 7D",9,OK
122,04:24:22.422,+16 ms,SLAVE,0x—,"FM Arbitration","FF FF FF FF FF",5,N/A
123,04:24:22.433,+11 ms,SLAVE,0xFD,"FM Event Confirm","FD 46 12 52 5D",5,OK
124,04:24:22.462,+29 ms,MASTER,0x83,"Read Coils","83 01 00 00 00 0C 22 2D",8,OK
125,04:24:22.484,+22 ms,ERR,0x83,"Read Coils","83 01 02 08 00 C6 22 83 01 13 89 00 01 36 86",15,ERR
126,04:24:22.505,+21 ms,ERR,0x83,"Read Coils","83 01 01 00 79 F0 83 01 14 B4 00 07 26 3C",14,ERR
127,04:24:22.526,+21 ms,ERR,0x83,"Read Coils","83 01 01 00 79 F0 83 03 00 61 00 02 8B F7",14,ERR
128,04:24:22.551,+25 ms,ERR,0x83,"Read Holding Regs","83 03 04 00 03 00 1E 28 33 83 04 00 03 00 09 DE 2E",17,ERR
129,04:24:22.606,+54 ms,MASTER,0xFD,"FM Event Request","FD 46 10 00 4F 00 00 C9 7D",9,OK
130,04:24:22.622,+16 ms,SLAVE,0x—,"FM Arbitration","FF FF FF FF FF",5,N/A
131,04:24:22.633,+11 ms,SLAVE,0xFD,"FM Event Confirm","FD 46 12 52 5D",5,OK
132,04:24:22.662,+29 ms,MASTER,0x83,"Read Input Regs","83 04 01 0E 00 0E 0F D3",8,OK
133,04:24:22.718,+56 ms,ERR,0x83,"Read Input Regs","83 04 1C 00 06 24 66 FF FE FF FE FF FE FF FE FF FE FF FE FF FE 03 F5 00 12 07 FD 00 0A 00 0C 72 E8 83 01 00 00 00 0C 22 2D",41,ERR
134,04:24:22.741,+23 ms,ERR,0x83,"Read Coils","83 01 02 08 00 C6 22 83 01 13 89 00 01 36 86",15,ERR
135,04:24:22.762,+22 ms,ERR,0x83,"Read Coils","83 01 01 00 79 F0 83 01 14 B4 00 07 26 3C",14,ERR
136,04:24:22.806,+44 ms,MASTER,0xFD,"FM Event Request","FD 46 10 00 4F 00 00 C9 7D",9,OK
137,04:24:22.822,+16 ms,SLAVE,0x—,"FM Arbitration","FF FF FF FF FF",5,N/A
138,04:24:22.833,+11 ms,SLAVE,0xFD,"FM Event Confirm","FD 46 12 52 5D",5,OK
139,04:24:22.862,+29 ms,MASTER,0x83,"Read Holding Regs","83 03 00 61 00 02 8B F7",8,OK
140,04:24:22.887,+25 ms,ERR,0x83,"Read Holding Regs","83 03 04 00 03 00 1E 28 33 83 04 00 03 00 09 DE 2E",17,ERR
141,04:24:22.936,+49 ms,ERR,0x83,"Read Input Regs","83 04 12 10 57 0C 09 07 1A FF FE FF FE 01 D2 00 00 00 00 00 92 32 A1 83 04 01 0E 00 0E 0F D3",31,ERR
142,04:24:23.006,+70 ms,MASTER,0xFD,"FM Event Request","FD 46 10 00 4F 00 00 C9 7D",9,OK
143,04:24:23.023,+17 ms,SLAVE,0x—,"FM Arbitration","FF FF FF FF FF",5,N/A
144,04:24:23.033,+10 ms,SLAVE,0xFD,"FM Event Confirm","FD 46 12 52 5D",5,OK
145,04:24:23.063,+30 ms,MASTER,0x83,"Read Coils","83 01 00 00 00 0C 22 2D",8,OK
146,04:24:23.084,+21 ms,ERR,0x83,"Read Coils","83 01 02 08 00 C6 22 83 01 13 89 00 01 36 86",15,ERR
147,04:24:23.106,+22 ms,ERR,0x83,"Read Coils","83 01 01 00 79 F0 83 01 14 B4 00 07 26 3C",14,ERR
148,04:24:23.126,+20 ms,ERR,0x83,"Read Coils","83 01 01 00 79 F0 83 03 00 61 00 02 8B F7",14,ERR
149,04:24:23.152,+26 ms,ERR,0x83,"Read Holding Regs","83 03 04 00 03 00 1E 28 33 83 04 00 03 00 09 DE 2E",17,ERR
150,04:24:23.206,+54 ms,MASTER,0xFD,"FM Event Request","FD 46 10 00 4F 00 00 C9 7D",9,OK
151,04:24:23.223,+17 ms,SLAVE,0x—,"FM Arbitration","FF FF FF FF FF",5,N/A
152,04:24:23.234,+11 ms,SLAVE,0xFD,"FM Event Confirm","FD 46 12 52 5D",5,OK
153,04:24:23.263,+29 ms,MASTER,0x83,"Read Input Regs","83 04 01 0E 00 0E 0F D3",8,OK
154,04:24:23.319,+55 ms,ERR,0x83,"Read Input Regs","83 04 1C 00 06 24 66 FF FE FF FE FF FE FF FE FF FE FF FE FF FE 03 F5 00 12 07 F3 00 0A 00 12 9B 21 83 01 00 00 00 0C 22 2D",41,ERR
155,04:24:23.341,+23 ms,ERR,0x83,"Read Coils","83 01 02 08 00 C6 22 83 01 13 89 00 01 36 86",15,ERR
156,04:24:23.362,+21 ms,ERR,0x83,"Read Coils","83 01 01 00 79 F0 83 01 14 B4 00 07 26 3C",14,ERR
157,04:24:23.407,+45 ms,MASTER,0xFD,"FM Event Request","FD 46 10 00 4F 00 00 C9 7D",9,OK
158,04:24:23.423,+16 ms,SLAVE,0x—,"FM Arbitration","FF FF FF FF FF",5,N/A
159,04:24:23.434,+11 ms,SLAVE,0xFD,"FM Event Confirm","FD 46 12 52 5D",5,OK
160,04:24:23.462,+28 ms,MASTER,0x83,"Read Holding Regs","83 03 00 61 00 02 8B F7",8,OK
161,04:24:23.487,+25 ms,ERR,0x83,"Read Holding Regs","83 03 04 00 03 00 1E 28 33 83 04 00 03 00 09 DE 2E",17,ERR
162,04:24:23.525,+39 ms,MASTER,0x83,"Read Input Regs","83 04 12 10 D9 0C 09 07 1D FF FE FF FE 01 D2 00 00 00 00 00 8F FC 64",23,OK
163,04:24:23.539,+14 ms,SLAVE,0x83,"Read Input Regs","83 04 01 0E 00 0E 0F D3",8,OK
164,04:24:23.607,+68 ms,MASTER,0xFD,"FM Event Request","FD 46 10 00 4F 00 00 C9 7D",9,OK
165,04:24:23.623,+16 ms,SLAVE,0x—,"FM Arbitration","FF FF FF FF FF",5,N/A
166,04:24:23.634,+11 ms,SLAVE,0xFD,"FM Event Confirm","FD 46 12 52 5D",5,OK
167,04:24:23.663,+29 ms,MASTER,0x83,"Read Coils","83 01 00 00 00 0C 22 2D",8,OK
168,04:24:23.685,+22 ms,ERR,0x83,"Read Coils","83 01 02 08 00 C6 22 83 01 13 89 00 01 36 86",15,ERR
169,04:24:23.706,+21 ms,ERR,0x83,"Read Coils","83 01 01 00 79 F0 83 01 14 B4 00 07 26 3C",14,ERR
170,04:24:23.727,+21 ms,ERR,0x83,"Read Coils","83 01 01 00 79 F0 83 03 00 61 00 02 8B F7",14,ERR
171,04:24:23.753,+26 ms,ERR,0x83,"Read Holding Regs","83 03 04 00 03 00 1E 28 33 83 04 00 03 00 09 DE 2E",17,ERR
172,04:24:23.807,+53 ms,MASTER,0xFD,"FM Event Request","FD 46 10 00 4F 00 00 C9 7D",9,OK
173,04:24:23.823,+16 ms,SLAVE,0x—,"FM Arbitration","FF FF FF FF FF",5,N/A
174,04:24:23.834,+11 ms,SLAVE,0xFD,"FM Event Confirm","FD 46 12 52 5D",5,OK
175,04:24:23.863,+29 ms,MASTER,0x83,"Read Input Regs","83 04 01 0E 00 0E 0F D3",8,OK
176,04:24:23.919,+56 ms,ERR,0x83,"Read Input Regs","83 04 1C 00 06 24 66 FF FE FF FE FF FE FF FE FF FE FF FE FF FE 03 F5 00 12 07 F9 00 0A 00 0F C3 29 83 01 00 00 00 0C 22 2D",41,ERR
177,04:24:23.942,+22 ms,ERR,0x83,"Read Coils","83 01 02 08 00 C6 22 83 01 13 89 00 01 36 86",15,ERR
178,04:24:23.963,+21 ms,ERR,0x83,"Read Coils","83 01 01 00 79 F0 83 01 14 B4 00 07 26 3C",14,ERR
179,04:24:24.007,+44 ms,MASTER,0xFD,"FM Event Request","FD 46 10 00 4F 00 00 C9 7D",9,OK
180,04:24:24.023,+16 ms,SLAVE,0x—,"FM Arbitration","FF FF FF FF FF",5,N/A
181,04:24:24.034,+11 ms,SLAVE,0xFD,"FM Event Confirm","FD 46 12 52 5D",5,OK
182,04:24:24.063,+29 ms,MASTER,0x83,"Read Holding Regs","83 03 00 61 00 02 8B F7",8,OK
183,04:24:24.088,+25 ms,ERR,0x83,"Read Holding Regs","83 03 04 00 03 00 1E 28 33 83 04 00 03 00 09 DE 2E",17,ERR
184,04:24:24.136,+48 ms,ERR,0x83,"Read Input Regs","83 04 12 10 00 0C 09 07 1D FF FE FF FE 01 D2 00 00 00 00 00 8F 77 CF 83 04 01 0E 00 0E 0F D3",31,ERR
185,04:24:24.207,+71 ms,MASTER,0xFD,"FM Event Request","FD 46 10 00 4F 00 00 C9 7D",9,OK
186,04:24:24.224,+17 ms,SLAVE,0x—,"FM Arbitration","FF FF FF FF FF",5,N/A
187,04:24:24.234,+10 ms,SLAVE,0xFD,"FM Event Confirm","FD 46 12 52 5D",5,OK
188,04:24:24.264,+30 ms,MASTER,0x83,"Read Coils","83 01 00 00 00 0C 22 2D",8,OK
189,04:24:24.285,+21 ms,ERR,0x83,"Read Coils","83 01 02 08 00 C6 22 83 01 13 89 00 01 36 86",15,ERR
190,04:24:24.307,+22 ms,ERR,0x83,"Read Coils","83 01 01 00 79 F0 83 01 14 B4 00 07 26 3C",14,ERR
191,04:24:24.328,+21 ms,ERR,0x83,"Read Coils","83 01 01 00 79 F0 83 03 00 61 00 02 8B F7",14,ERR
192,04:24:24.353,+25 ms,ERR,0x83,"Read Holding Regs","83 03 04 00 03 00 1E 28 33 83 04 00 03 00 09 DE 2E",17,ERR
193,04:24:24.406,+54 ms,MASTER,0xFD,"FM Event Request","FD 46 10 00 4F 00 00 C9 7D",9,OK
194,04:24:24.424,+17 ms,SLAVE,0x—,"FM Arbitration","FF FF FF FF FF",5,N/A
195,04:24:24.434,+10 ms,SLAVE,0xFD,"FM Event Confirm","FD 46 12 52 5D",5,OK
196,04:24:24.464,+31 ms,MASTER,0x83,"Read Input Regs","83 04 01 0E 00 0E 0F D3",8,OK
197,04:24:24.519,+55 ms,ERR,0x83,"Read Input Regs","83 04 1C 00 06 24 66 FF FE FF FE FF FE FF FE FF FE FF FE FF FE 03 F5 00 12 07 FB 00 0A 00 0C FA E8 83 01 00 00 00 0C 22 2D",41,ERR
198,04:24:24.543,+24 ms,ERR,0x83,"Read Coils","83 01 02 08 00 C6 22 83 01 13 89 00 01 36 86",15,ERR
199,04:24:24.564,+21 ms,ERR,0x83,"Read Coils","83 01 01 00 79 F0 83 01 14 B4 00 07 26 3C",14,ERR
200,04:24:24.607,+43 ms,MASTER,0xFD,"FM Event Request","FD 46 10 00 4F 00 00 C9 7D",9,OK
201,04:24:24.624,+17 ms,SLAVE,0x—,"FM Arbitration","FF FF FF FF FF",5,N/A
202,04:24:24.634,+10 ms,SLAVE,0xFD,"FM Event Confirm","FD 46 12 52 5D",5,OK
203,04:24:24.663,+29 ms,MASTER,0x83,"Read Holding Regs","83 03 00 61 00 02 8B F7",8,OK
204,04:24:24.688,+25 ms,ERR,0x83,"Read Holding Regs","83 03 04 00 03 00 1E 28 33 83 04 00 03 00 09 DE 2E",17,ERR
205,04:24:24.736,+48 ms,ERR,0x83,"Read Input Regs","83 04 12 0F EA 0C 09 07 1B FF FE FF FE 01 D2 00 00 00 00 00 9D A6 82 83 04 01 0E 00 0E 0F D3",31,ERR
206,04:24:24.808,+71 ms,MASTER,0xFD,"FM Event Request","FD 46 10 00 4F 00 00 C9 7D",9,OK
207,04:24:24.824,+16 ms,SLAVE,0x—,"FM Arbitration","FF FF FF FF FF",5,N/A
208,04:24:24.834,+11 ms,SLAVE,0xFD,"FM Event Confirm","FD 46 12 52 5D",5,OK
209,04:24:24.864,+29 ms,MASTER,0x83,"Read Coils","83 01 00 00 00 0C 22 2D",8,OK
210,04:24:24.886,+22 ms,ERR,0x83,"Read Coils","83 01 02 08 00 C6 22 83 01 13 89 00 01 36 86",15,ERR
211,04:24:24.907,+21 ms,ERR,0x83,"Read Coils","83 01 01 00 79 F0 83 01 14 B4 00 07 26 3C",14,ERR
212,04:24:24.928,+21 ms,ERR,0x83,"Read Coils","83 01 01 00 79 F0 83 03 00 61 00 02 8B F7",14,ERR
213,04:24:24.953,+25 ms,ERR,0x83,"Read Holding Regs","83 03 04 00 03 00 1E 28 33 83 04 00 03 00 09 DE 2E",17,ERR
214,04:24:25.007,+54 ms,MASTER,0xFD,"FM Event Request","FD 46 10 00 4F 00 00 C9 7D",9,OK
215,04:24:25.024,+16 ms,SLAVE,0x—,"FM Arbitration","FF FF FF FF FF",5,N/A
216,04:24:25.034,+11 ms,SLAVE,0xFD,"FM Event Confirm","FD 46 12 52 5D",5,OK
217,04:24:25.064,+29 ms,MASTER,0x83,"Read Input Regs","83 04 01 0E 00 0E 0F D3",8,OK
218,04:24:25.120,+56 ms,ERR,0x83,"Read Input Regs","83 04 1C 00 06 24 66 FF FE FF FE FF FE FF FE FF FE FF FE FF FE 03 F5 00 12 08 06 00 0A 00 0A 17 C1 83 01 00 00 00 0C 22 2D",41,ERR
219,04:24:25.141,+22 ms,ERR,0x83,"Read Coils","83 01 02 08 00 C6 22 83 01 13 89 00 01 36 86",15,ERR
220,04:24:25.163,+21 ms,ERR,0x83,"Read Coils","83 01 01 00 79 F0 83 01 14 B4 00 07 26 3C",14,ERR
221,04:24:25.208,+45 ms,MASTER,0xFD,"FM Event Request","FD 46 10 00 4F 00 00 C9 7D",9,OK
222,04:24:25.224,+16 ms,SLAVE,0x—,"FM Arbitration","FF FF FF FF FF",5,N/A
223,04:24:25.235,+11 ms,SLAVE,0xFD,"FM Event Confirm","FD 46 12 52 5D",5,OK
224,04:24:25.264,+29 ms,MASTER,0x83,"Read Holding Regs","83 03 00 61 00 02 8B F7",8,OK
225,04:24:25.289,+25 ms,ERR,0x83,"Read Holding Regs","83 03 04 00 03 00 1E 28 33 83 04 00 03 00 09 DE 2E",17,ERR
226,04:24:25.339,+50 ms,ERR,0x83,"Read Input Regs","83 04 12 10 0D 0C 08 07 1C FF FE FF FE 01 D2 00 00 00 00 00 9D A0 D0 83 04 01 0E 00 0E 0F D3",31,ERR
227,04:24:25.408,+69 ms,MASTER,0xFD,"FM Event Request","FD 46 10 00 4F 00 00 C9 7D",9,OK
228,04:24:25.424,+16 ms,SLAVE,0x—,"FM Arbitration","FF FF FF FF FF",5,N/A
229,04:24:25.434,+11 ms,SLAVE,0xFD,"FM Event Confirm","FD 46 12 52 5D",5,OK
230,04:24:25.464,+30 ms,MASTER,0x83,"Read Coils","83 01 00 00 00 0C 22 2D",8,OK
231,04:24:25.486,+21 ms,ERR,0x83,"Read Coils","83 01 02 08 00 C6 22 83 01 13 89 00 01 36 86",15,ERR
232,04:24:25.510,+24 ms,ERR,0x83,"Read Coils","83 01 01 00 79 F0 83 01 14 B4 00 07 26 3C",14,ERR
233,04:24:25.530,+21 ms,ERR,0x83,"Read Coils","83 01 01 00 79 F0 83 03 00 61 00 02 8B F7",14,ERR
234,04:24:25.555,+25 ms,ERR,0x83,"Read Holding Regs","83 03 04 00 03 00 1E 28 33 83 04 00 03 00 09 DE 2E",17,ERR
235,04:24:25.607,+52 ms,MASTER,0xFD,"FM Event Request","FD 46 10 00 4F 00 00 C9 7D",9,OK
236,04:24:25.624,+16 ms,SLAVE,0x—,"FM Arbitration","FF FF FF FF FF",5,N/A
237,04:24:25.634,+11 ms,SLAVE,0xFD,"FM Event Confirm","FD 46 12 52 5D",5,OK
238,04:24:25.664,+29 ms,MASTER,0x83,"Read Input Regs","83 04 01 0E 00 0E 0F D3",8,OK
239,04:24:25.720,+57 ms,ERR,0x83,"Read Input Regs","83 04 1C 00 06 24 66 FF FE FF FE FF FE FF FE FF FE FF FE FF FE 03 F5 00 12 07 FC 00 0A 00 08 4E EB 83 01 00 00 00 0C 22 2D",41,ERR
240,04:24:25.742,+22 ms,ERR,0x83,"Read Coils","83 01 02 08 00 C6 22 83 01 13 89 00 01 36 86",15,ERR
241,04:24:25.764,+22 ms,ERR,0x83,"Read Coils","83 01 01 00 79 F0 83 01 14 B4 00 07 26 3C",14,ERR
242,04:24:25.808,+44 ms,MASTER,0xFD,"FM Event Request","FD 46 10 00 4F 00 00 C9 7D",9,OK
243,04:24:25.824,+17 ms,SLAVE,0x—,"FM Arbitration","FF FF FF FF FF",5,N/A
244,04:24:25.834,+10 ms,SLAVE,0xFD,"FM Event Confirm","FD 46 12 52 5D",5,OK
245,04:24:25.864,+29 ms,MASTER,0x83,"Read Holding Regs","83 03 00 61 00 02 8B F7",8,OK
246,04:24:25.888,+25 ms,ERR,0x83,"Read Holding Regs","83 03 04 00 03 00 1E 28 33 83 04 00 03 00 09 DE 2E",17,ERR
247,04:24:25.937,+49 ms,ERR,0x83,"Read Input Regs","83 04 12 0F F3 0C 08 07 1C FF FE FF FE 01 D2 00 00 00 00 00 8D B6 9E 83 04 01 0E 00 0E 0F D3",31,ERR
248,04:24:26.008,+71 ms,MASTER,0xFD,"FM Event Request","FD 46 10 00 4F 00 00 C9 7D",9,OK
249,04:24:26.024,+16 ms,SLAVE,0x—,"FM Arbitration","FF FF FF FF FF",5,N/A
250,04:24:26.035,+11 ms,SLAVE,0xFD,"FM Event Confirm","FD 46 12 52 5D",5,OK
251,04:24:26.065,+29 ms,MASTER,0x83,"Read Coils","83 01 00 00 00 0C 22 2D",8,OK
252,04:24:26.086,+22 ms,ERR,0x83,"Read Coils","83 01 02 08 00 C6 22 83 01 13 89 00 01 36 86",15,ERR
253,04:24:26.108,+21 ms,ERR,0x83,"Read Coils","83 01 01 00 79 F0 83 01 14 B4 00 07 26 3C",14,ERR
254,04:24:26.129,+21 ms,ERR,0x83,"Read Coils","83 01 01 00 79 F0 83 03 00 61 00 02 8B F7",14,ERR
255,04:24:26.154,+25 ms,ERR,0x83,"Read Holding Regs","83 03 04 00 03 00 1E 28 33 83 04 00 03 00 09 DE 2E",17,ERR
256,04:24:26.208,+55 ms,MASTER,0xFD,"FM Event Request","FD 46 10 00 4F 00 00 C9 7D",9,OK
257,04:24:26.225,+16 ms,SLAVE,0x—,"FM Arbitration","FF FF FF FF FF",5,N/A
258,04:24:26.235,+11 ms,SLAVE,0xFD,"FM Event Confirm","FD 46 12 52 5D",5,OK
259,04:24:26.264,+29 ms,MASTER,0x83,"Read Input Regs","83 04 01 0E 00 0E 0F D3",8,OK
260,04:24:26.320,+56 ms,ERR,0x83,"Read Input Regs","83 04 1C 00 06 24 66 FF FE FF FE FF FE FF FE FF FE FF FE FF FE 03 F5 00 12 08 04 00 0A 00 0C EE 03 83 01 00 00 00 0C 22 2D",41,ERR
261,04:24:26.343,+23 ms,ERR,0x83,"Read Coils","83 01 02 08 00 C6 22 83 01 13 89 00 01 36 86",15,ERR
262,04:24:26.364,+21 ms,ERR,0x83,"Read Coils","83 01 01 00 79 F0 83 01 14 B4 00 07 26 3C",14,ERR
263,04:24:26.409,+45 ms,MASTER,0xFD,"FM Event Request","FD 46 10 00 4F 00 00 C9 7D",9,OK
264,04:24:26.424,+15 ms,SLAVE,0x—,"FM Arbitration","FF FF FF FF FF",5,N/A
265,04:24:26.436,+12 ms,SLAVE,0xFD,"FM Event Confirm","FD 46 12 52 5D",5,OK
266,04:24:26.464,+28 ms,MASTER,0x83,"Read Holding Regs","83 03 00 61 00 02 8B F7",8,OK
267,04:24:26.489,+25 ms,ERR,0x83,"Read Holding Regs","83 03 04 00 03 00 1E 28 33 83 04 00 03 00 09 DE 2E",17,ERR
268,04:24:26.539,+50 ms,ERR,0x83,"Read Input Regs","83 04 12 0F FD 0C 09 07 18 FF FE FF FE 01 D2 00 00 00 00 00 8D 1D 79 83 04 01 0E 00 0E 0F D3",31,ERR
269,04:24:26.608,+69 ms,MASTER,0xFD,"FM Event Request","FD 46 10 00 4F 00 00 C9 7D",9,OK
270,04:24:26.625,+16 ms,SLAVE,0x—,"FM Arbitration","FF FF FF FF FF",5,N/A
271,04:24:26.635,+11 ms,SLAVE,0xFD,"FM Event Confirm","FD 46 12 52 5D",5,OK
272,04:24:26.665,+29 ms,MASTER,0x83,"Read Coils","83 01 00 00 00 0C 22 2D",8,OK
273,04:24:26.687,+22 ms,ERR,0x83,"Read Coils","83 01 02 08 00 C6 22 83 01 13 89 00 01 36 86",15,ERR
274,04:24:26.709,+22 ms,ERR,0x83,"Read Coils","83 01 01 00 79 F0 83 01 14 B4 00 07 26 3C",14,ERR
275,04:24:26.729,+21 ms,ERR,0x83,"Read Coils","83 01 01 00 79 F0 83 03 00 61 00 02 8B F7",14,ERR
276,04:24:26.754,+25 ms,ERR,0x83,"Read Holding Regs","83 03 04 00 03 00 1E 28 33 83 04 00 03 00 09 DE 2E",17,ERR
277,04:24:26.808,+54 ms,MASTER,0xFD,"FM Event Request","FD 46 10 00 4F 00 00 C9 7D",9,OK
278,04:24:26.825,+16 ms,SLAVE,0x—,"FM Arbitration","FF FF FF FF FF",5,N/A
279,04:24:26.835,+11 ms,SLAVE,0xFD,"FM Event Confirm","FD 46 12 52 5D",5,OK
280,04:24:26.865,+29 ms,MASTER,0x83,"Read Input Regs","83 04 01 0E 00 0E 0F D3",8,OK
281,04:24:26.922,+58 ms,ERR,0x83,"Read Input Regs","83 04 1C 00 06 24 66 FF FE FF FE FF FE FF FE FF FE FF FE FF FE 03 F5 00 12 07 F3 00 0A 00 0D DA E9 83 01 00 00 00 0C 22 2D",41,ERR
282,04:24:26.945,+23 ms,ERR,0x83,"Read Coils","83 01 02 08 00 C6 22 83 01 13 89 00 01 36 86",15,ERR
283,04:24:26.965,+20 ms,ERR,0x83,"Read Coils","83 01 01 00 79 F0 83 01 14 B4 00 07 26 3C",14,ERR
284,04:24:27.008,+43 ms,MASTER,0xFD,"FM Event Request","FD 46 10 00 4F 00 00 C9 7D",9,OK
285,04:24:27.026,+17 ms,SLAVE,0x—,"FM Arbitration","FF FF FF FF FF",5,N/A
286,04:24:27.035,+10 ms,SLAVE,0xFD,"FM Event Confirm","FD 46 12 52 5D",5,OK
287,04:24:27.064,+29 ms,MASTER,0x83,"Read Holding Regs","83 03 00 61 00 02 8B F7",8,OK
288,04:24:27.089,+25 ms,ERR,0x83,"Read Holding Regs","83 03 04 00 03 00 1E 28 33 83 04 00 03 00 09 DE 2E",17,ERR
289,04:24:27.138,+49 ms,ERR,0x83,"Read Input Regs","83 04 12 10 17 0C 09 07 18 FF FE FF FE 01 D2 00 00 00 00 00 90 85 F6 83 04 01 0E 00 0E 0F D3",31,ERR
290,04:24:27.209,+71 ms,MASTER,0xFD,"FM Event Request","FD 46 10 00 4F 00 00 C9 7D",9,OK
291,04:24:27.225,+16 ms,SLAVE,0x—,"FM Arbitration","FF FF FF FF FF",5,N/A
292,04:24:27.237,+12 ms,SLAVE,0xFD,"FM Event Confirm","FD 46 12 52 5D",5,OK
293,04:24:27.265,+28 ms,MASTER,0x83,"Read Coils","83 01 00 00 00 0C 22 2D",8,OK
294,04:24:27.287,+22 ms,ERR,0x83,"Read Coils","83 01 02 08 00 C6 22 83 01 13 89 00 01 36 86",15,ERR
295,04:24:27.309,+22 ms,ERR,0x83,"Read Coils","83 01 01 00 79 F0 83 01 14 B4 00 07 26 3C",14,ERR
296,04:24:27.330,+21 ms,ERR,0x83,"Read Coils","83 01 01 00 79 F0 83 03 00 61 00 02 8B F7",14,ERR
297,04:24:27.355,+25 ms,ERR,0x83,"Read Holding Regs","83 03 04 00 03 00 1E 28 33 83 04 00 03 00 09 DE 2E",17,ERR
298,04:24:27.409,+54 ms,MASTER,0xFD,"FM Event Request","FD 46 10 00 4F 00 00 C9 7D",9,OK
299,04:24:27.425,+17 ms,SLAVE,0x—,"FM Arbitration","FF FF FF FF FF",5,N/A
300,04:24:27.436,+11 ms,SLAVE,0xFD,"FM Event Confirm","FD 46 12 52 5D",5,OK
301,04:24:27.465,+29 ms,MASTER,0x83,"Read Input Regs","83 04 01 0E 00 0E 0F D3",8,OK
302,04:24:27.521,+56 ms,ERR,0x83,"Read Input Regs","83 04 1C 00 06 24 66 FF FE FF FE FF FE FF FE FF FE FF FE FF FE 03 F5 00 12 08 00 00 0A 00 0B 5E 01 83 01 00 00 00 0C 22 2D",41,ERR
303,04:24:27.543,+22 ms,ERR,0x83,"Read Coils","83 01 02 08 00 C6 22 83 01 13 89 00 01 36 86",15,ERR
304,04:24:27.564,+21 ms,ERR,0x83,"Read Coils","83 01 01 00 79 F0 83 01 14 B4 00 07 26 3C",14,ERR
305,04:24:27.609,+45 ms,MASTER,0xFD,"FM Event Request","FD 46 10 00 4F 00 00 C9 7D",9,OK
306,04:24:27.625,+16 ms,SLAVE,0x—,"FM Arbitration","FF FF FF FF FF",5,N/A
307,04:24:27.636,+11 ms,SLAVE,0xFD,"FM Event Confirm","FD 46 12 52 5D",5,OK
308,04:24:27.665,+28 ms,MASTER,0x83,"Read Holding Regs","83 03 00 61 00 02 8B F7",8,OK
309,04:24:27.689,+24 ms,ERR,0x83,"Read Holding Regs","83 03 04 00 03 00 1E 28 33 83 04 00 03 00 09 DE 2E",17,ERR
310,04:24:27.739,+50 ms,ERR,0x83,"Read Input Regs","83 04 12 10 13 0C 08 07 1B FF FE FF FE 01 D1 00 00 00 00 00 8F 71 3C 83 04 01 0E 00 0E 0F D3",31,ERR
311,04:24:27.809,+70 ms,MASTER,0xFD,"FM Event Request","FD 46 10 00 4F 00 00 C9 7D",9,OK
312,04:24:27.825,+16 ms,SLAVE,0x—,"FM Arbitration","FF FF FF FF FF",5,N/A
313,04:24:27.836,+11 ms,SLAVE,0xFD,"FM Event Confirm","FD 46 12 52 5D",5,OK
314,04:24:27.865,+29 ms,MASTER,0x83,"Read Coils","83 01 00 00 00 0C 22 2D",8,OK
315,04:24:27.887,+22 ms,ERR,0x83,"Read Coils","83 01 02 08 00 C6 22 83 01 13 89 00 01 36 86",15,ERR
316,04:24:27.909,+22 ms,ERR,0x83,"Read Coils","83 01 01 00 79 F0 83 01 14 B4 00 07 26 3C",14,ERR
317,04:24:27.930,+21 ms,ERR,0x83,"Read Coils","83 01 01 00 79 F0 83 03 00 61 00 02 8B F7",14,ERR
318,04:24:27.955,+25 ms,ERR,0x83,"Read Holding Regs","83 03 04 00 03 00 1E 28 33 83 04 00 03 00 09 DE 2E",17,ERR
319,04:24:28.009,+54 ms,MASTER,0xFD,"FM Event Request","FD 46 10 00 4F 00 00 C9 7D",9,OK
320,04:24:28.025,+16 ms,SLAVE,0x—,"FM Arbitration","FF FF FF FF FF",5,N/A
321,04:24:28.036,+12 ms,SLAVE,0xFD,"FM Event Confirm","FD 46 12 52 5D",5,OK
322,04:24:28.065,+29 ms,MASTER,0x83,"Read Input Regs","83 04 01 0E 00 0E 0F D3",8,OK
323,04:24:28.120,+55 ms,ERR,0x83,"Read Input Regs","83 04 1C 00 06 24 66 FF FE FF FE FF FE FF FE FF FE FF FE FF FE 03 F5 00 12 07 F2 00 0A 00 0D E7 29 83 01 00 00 00 0C 22 2D",41,ERR
324,04:24:28.143,+22 ms,ERR,0x83,"Read Coils","83 01 02 08 00 C6 22 83 01 13 89 00 01 36 86",15,ERR
325,04:24:28.163,+21 ms,ERR,0x83,"Read Coils","83 01 01 00 79 F0 83 01 14 B4 00 07 26 3C",14,ERR
326,04:24:28.209,+46 ms,MASTER,0xFD,"FM Event Request","FD 46 10 00 4F 00 00 C9 7D",9,OK
327,04:24:28.225,+16 ms,SLAVE,0x—,"FM Arbitration","FF FF FF FF FF",5,N/A
328,04:24:28.236,+11 ms,SLAVE,0xFD,"FM Event Confirm","FD 46 12 52 5D",5,OK
329,04:24:28.265,+30 ms,MASTER,0x83,"Read Holding Regs","83 03 00 61 00 02 8B F7",8,OK
330,04:24:28.290,+24 ms,ERR,0x83,"Read Holding Regs","83 03 04 00 03 00 1E 28 33 83 04 00 03 00 09 DE 2E",17,ERR
331,04:24:28.340,+51 ms,ERR,0x83,"Read Input Regs","83 04 12 0F F5 0C 0C 07 1B FF FE FF FE 01 D1 00 00 00 00 00 8F E8 BA 83 04 01 0E 00 0E 0F D3",31,ERR
332,04:24:28.409,+69 ms,MASTER,0xFD,"FM Event Request","FD 46 10 00 4F 00 00 C9 7D",9,OK
333,04:24:28.426,+17 ms,SLAVE,0x—,"FM Arbitration","FF FF FF FF FF",5,N/A
334,04:24:28.436,+10 ms,SLAVE,0xFD,"FM Event Confirm","FD 46 12 52 5D",5,OK
335,04:24:28.466,+30 ms,MASTER,0x83,"Read Coils","83 01 00 00 00 0C 22 2D",8,OK
336,04:24:28.487,+21 ms,ERR,0x83,"Read Coils","83 01 02 08 00 C6 22 83 01 13 89 00 01 36 86",15,ERR
337,04:24:28.509,+22 ms,ERR,0x83,"Read Coils","83 01 01 00 79 F0 83 01 14 B4 00 07 26 3C",14,ERR
338,04:24:28.530,+21 ms,ERR,0x83,"Read Coils","83 01 01 00 79 F0 83 03 00 61 00 02 8B F7",14,ERR
339,04:24:28.555,+25 ms,ERR,0x83,"Read Holding Regs","83 03 04 00 03 00 1E 28 33 83 04 00 03 00 09 DE 2E",17,ERR
340,04:24:28.609,+54 ms,MASTER,0xFD,"FM Event Request","FD 46 10 00 4F 00 00 C9 7D",9,OK
341,04:24:28.626,+17 ms,SLAVE,0x—,"FM Arbitration","FF FF FF FF FF",5,N/A
342,04:24:28.637,+11 ms,SLAVE,0xFD,"FM Event Confirm","FD 46 12 52 5D",5,OK
343,04:24:28.665,+28 ms,MASTER,0x83,"Read Input Regs","83 04 01 0E 00 0E 0F D3",8,OK
344,04:24:28.722,+56 ms,ERR,0x83,"Read Input Regs","83 04 1C 00 06 24 66 FF FE FF FE FF FE FF FE FF FE FF FE FF FE 03 F5 00 12 08 09 00 0A 00 0D 02 02 83 01 00 00 00 0C 22 2D",41,ERR
345,04:24:28.744,+23 ms,ERR,0x83,"Read Coils","83 01 02 08 00 C6 22 83 01 13 89 00 01 36 86",15,ERR
346,04:24:28.765,+21 ms,ERR,0x83,"Read Coils","83 01 01 00 79 F0 83 01 14 B4 00 07 26 3C",14,ERR
347,04:24:28.810,+45 ms,MASTER,0xFD,"FM Event Request","FD 46 10 00 4F 00 00 C9 7D",9,OK
348,04:24:28.826,+16 ms,SLAVE,0x—,"FM Arbitration","FF FF FF FF FF",5,N/A
349,04:24:28.837,+11 ms,SLAVE,0xFD,"FM Event Confirm","FD 46 12 52 5D",5,OK
350,04:24:28.865,+28 ms,MASTER,0x83,"Read Holding Regs","83 03 00 61 00 02 8B F7",8,OK
351,04:24:28.891,+26 ms,ERR,0x83,"Read Holding Regs","83 03 04 00 03 00 1E 28 33 83 04 00 03 00 09 DE 2E",17,ERR
352,04:24:28.940,+49 ms,ERR,0x83,"Read Input Regs","83 04 12 10 0F 0C 0C 07 1B FF FE FF FE 01 D1 00 00 00 00 00 8E 7C 39 83 04 01 0E 00 0E 0F D3",31,ERR
353,04:24:29.010,+69 ms,MASTER,0xFD,"FM Event Request","FD 46 10 00 4F 00 00 C9 7D",9,OK
354,04:24:29.026,+16 ms,SLAVE,0x—,"FM Arbitration","FF FF FF FF FF",5,N/A
355,04:24:29.037,+11 ms,SLAVE,0xFD,"FM Event Confirm","FD 46 12 52 5D",5,OK
356,04:24:29.066,+29 ms,MASTER,0x83,"Read Coils","83 01 00 00 00 0C 22 2D",8,OK
357,04:24:29.088,+23 ms,ERR,0x83,"Read Coils","83 01 02 08 00 C6 22 83 01 13 89 00 01 36 86",15,ERR
358,04:24:29.109,+21 ms,ERR,0x83,"Read Coils","83 01 01 00 79 F0 83 01 14 B4 00 07 26 3C",14,ERR
359,04:24:29.130,+21 ms,ERR,0x83,"Read Coils","83 01 01 00 79 F0 83 03 00 61 00 02 8B F7",14,ERR
360,04:24:29.155,+25 ms,ERR,0x83,"Read Holding Regs","83 03 04 00 03 00 1E 28 33 83 04 00 03 00 09 DE 2E",17,ERR
361,04:24:29.210,+54 ms,MASTER,0xFD,"FM Event Request","FD 46 10 00 4F 00 00 C9 7D",9,OK
362,04:24:29.226,+16 ms,SLAVE,0x—,"FM Arbitration","FF FF FF FF FF",5,N/A
363,04:24:29.237,+11 ms,SLAVE,0xFD,"FM Event Confirm","FD 46 12 52 5D",5,OK
364,04:24:29.266,+29 ms,MASTER,0x83,"Read Input Regs","83 04 01 0E 00 0E 0F D3",8,OK
365,04:24:29.323,+57 ms,ERR,0x83,"Read Input Regs","83 04 1C 00 06 24 66 FF FE FF FE FF FE FF FE FF FE FF FE FF FE 03 F5 00 12 07 F6 00 0A 00 0F 97 28 83 01 00 00 00 0C 22 2D",41,ERR
366,04:24:29.345,+22 ms,ERR,0x83,"Read Coils","83 01 02 08 00 C6 22 83 01 13 89 00 01 36 86",15,ERR
367,04:24:29.366,+21 ms,ERR,0x83,"Read Coils","83 01 01 00 79 F0 83 01 14 B4 00 07 26 3C",14,ERR
368,04:24:29.410,+44 ms,MASTER,0xFD,"FM Event Request","FD 46 10 00 4F 00 00 C9 7D",9,OK
369,04:24:29.426,+16 ms,SLAVE,0x—,"FM Arbitration","FF FF FF FF FF",5,N/A
370,04:24:29.437,+11 ms,SLAVE,0xFD,"FM Event Confirm","FD 46 12 52 5D",5,OK
371,04:24:29.466,+29 ms,MASTER,0x83,"Read Holding Regs","83 03 00 61 00 02 8B F7",8,OK
372,04:24:29.491,+25 ms,ERR,0x83,"Read Holding Regs","83 03 04 00 03 00 1E 28 33 83 04 00 03 00 09 DE 2E",17,ERR
373,04:24:29.540,+48 ms,ERR,0x83,"Read Input Regs","83 04 12 0F 87 0C 06 07 1A FF FE FF FE 01 D1 00 00 00 00 00 8E 25 47 83 04 01 0E 00 0E 0F D3",31,ERR
374,04:24:29.610,+70 ms,MASTER,0xFD,"FM Event Request","FD 46 10 00 4F 00 00 C9 7D",9,OK
375,04:24:29.626,+16 ms,SLAVE,0x—,"FM Arbitration","FF FF FF FF FF",5,N/A
376,04:24:29.637,+11 ms,SLAVE,0xFD,"FM Event Confirm","FD 46 12 52 5D",5,OK
377,04:24:29.666,+29 ms,MASTER,0x83,"Read Coils","83 01 00 00 00 0C 22 2D",8,OK
378,04:24:29.689,+23 ms,ERR,0x83,"Read Coils","83 01 02 08 00 C6 22 83 01 13 89 00 01 36 86",15,ERR
379,04:24:29.710,+22 ms,ERR,0x83,"Read Coils","83 01 01 00 79 F0 83 01 14 B4 00 07 26 3C",14,ERR
380,04:24:29.731,+20 ms,ERR,0x83,"Read Coils","83 01 01 00 79 F0 83 03 00 61 00 02 8B F7",14,ERR
381,04:24:29.756,+25 ms,ERR,0x83,"Read Holding Regs","83 03 04 00 03 00 1E 28 33 83 04 00 03 00 09 DE 2E",17,ERR
382,04:24:29.810,+54 ms,MASTER,0xFD,"FM Event Request","FD 46 10 00 4F 00 00 C9 7D",9,OK
383,04:24:29.827,+17 ms,SLAVE,0x—,"FM Arbitration","FF FF FF FF FF",5,N/A
384,04:24:29.837,+10 ms,SLAVE,0xFD,"FM Event Confirm","FD 46 12 52 5D",5,OK
385,04:24:29.866,+29 ms,MASTER,0x83,"Read Input Regs","83 04 01 0E 00 0E 0F D3",8,OK
386,04:24:29.923,+57 ms,ERR,0x83,"Read Input Regs","83 04 1C 00 06 24 66 FF FE FF FE FF FE FF FE FF FE FF FE FF FE 03 F5 00 12 07 FD 00 0A 00 0C 72 E8 83 01 00 00 00 0C 22 2D",41,ERR
387,04:24:29.945,+22 ms,ERR,0x83,"Read Coils","83 01 02 08 00 C6 22 83 01 13 89 00 01 36 86",15,ERR
388,04:24:29.966,+21 ms,ERR,0x83,"Read Coils","83 01 01 00 79 F0 83 01 14 B4 00 07 26 3C",14,ERR
389,04:24:30.010,+45 ms,MASTER,0xFD,"FM Event Request","FD 46 10 00 4F 00 00 C9 7D",9,OK
390,04:24:30.027,+17 ms,SLAVE,0x—,"FM Arbitration","FF FF FF FF FF",5,N/A
391,04:24:30.037,+11 ms,SLAVE,0xFD,"FM Event Confirm","FD 46 12 52 5D",5,OK
392,04:24:30.066,+28 ms,MASTER,0x83,"Read Holding Regs","83 03 00 61 00 02 8B F7",8,OK
393,04:24:30.092,+26 ms,ERR,0x83,"Read Holding Regs","83 03 04 00 03 00 1E 28 33 83 04 00 03 00 09 DE 2E",17,ERR
394,04:24:30.141,+49 ms,ERR,0x83,"Read Input Regs","83 04 12 0F B9 0C 06 07 1A FF FE FF FE 01 D1 00 00 00 00 00 89 14 E9 83 04 01 0E 00 0E 0F D3",31,ERR
395,04:24:30.211,+70 ms,MASTER,0xFD,"FM Event Request","FD 46 10 00 4F 00 00 C9 7D",9,OK
396,04:24:30.227,+16 ms,SLAVE,0x—,"FM Arbitration","FF FF FF FF FF",5,N/A
397,04:24:30.237,+11 ms,SLAVE,0xFD,"FM Event Confirm","FD 46 12 52 5D",5,OK
398,04:24:30.267,+29 ms,MASTER,0x83,"Read Coils","83 01 00 00 00 0C 22 2D",8,OK
399,04:24:30.289,+22 ms,ERR,0x83,"Read Coils","83 01 02 08 00 C6 22 83 01 13 89 00 01 36 86",15,ERR
400,04:24:30.311,+22 ms,ERR,0x83,"Read Coils","83 01 01 00 79 F0 83 01 14 B4 00 07 26 3C",14,ERR
401,04:24:30.332,+21 ms,ERR,0x83,"Read Coils","83 01 01 00 79 F0 83 03 00 61 00 02 8B F7",14,ERR
402,04:24:30.357,+25 ms,ERR,0x83,"Read Holding Regs","83 03 04 00 03 00 1E 28 33 83 04 00 03 00 09 DE 2E",17,ERR
403,04:24:30.411,+54 ms,MASTER,0xFD,"FM Event Request","FD 46 10 00 4F 00 00 C9 7D",9,OK
404,04:24:30.427,+16 ms,SLAVE,0x—,"FM Arbitration","FF FF FF FF FF",5,N/A
405,04:24:30.438,+11 ms,SLAVE,0xFD,"FM Event Confirm","FD 46 12 52 5D",5,OK
406,04:24:30.467,+29 ms,MASTER,0x83,"Read Input Regs","83 04 01 0E 00 0E 0F D3",8,OK
407,04:24:30.523,+56 ms,ERR,0x83,"Read Input Regs","83 04 1C 00 06 24 66 FF FE FF FE FF FE FF FE FF FE FF FE FF FE 03 F5 00 12 08 03 00 0A 00 0A DB C1 83 01 00 00 00 0C 22 2D",41,ERR
408,04:24:30.545,+22 ms,ERR,0x83,"Read Coils","83 01 02 08 00 C6 22 83 01 13 89 00 01 36 86",15,ERR
409,04:24:30.566,+21 ms,ERR,0x83,"Read Coils","83 01 01 00 79 F0 83 01 14 B4 00 07 26 3C",14,ERR
410,04:24:30.611,+45 ms,MASTER,0xFD,"FM Event Request","FD 46 10 00 4F 00 00 C9 7D",9,OK
411,04:24:30.627,+16 ms,SLAVE,0x—,"FM Arbitration","FF FF FF FF FF",5,N/A
412,04:24:30.638,+11 ms,SLAVE,0xFD,"FM Event Confirm","FD 46 12 52 5D",5,OK
413,04:24:30.667,+29 ms,MASTER,0x83,"Read Holding Regs","83 03 00 61 00 02 8B F7",8,OK
414,04:24:30.691,+25 ms,ERR,0x83,"Read Holding Regs","83 03 04 00 03 00 1E 28 33 83 04 00 03 00 09 DE 2E",17,ERR
415,04:24:30.740,+49 ms,ERR,0x83,"Read Input Regs","83 04 12 0F 90 0C 08 07 1C FF FE FF FE 01 D1 00 00 00 00 00 89 5C B3 83 04 01 0E 00 0E 0F D3",31,ERR
416,04:24:30.811,+70 ms,MASTER,0xFD,"FM Event Request","FD 46 10 00 4F 00 00 C9 7D",9,OK
417,04:24:30.827,+16 ms,SLAVE,0x—,"FM Arbitration","FF FF FF FF FF",5,N/A
418,04:24:30.838,+11 ms,SLAVE,0xFD,"FM Event Confirm","FD 46 12 52 5D",5,OK
419,04:24:30.868,+30 ms,MASTER,0x83,"Read Coils","83 01 00 00 00 0C 22 2D",8,OK
420,04:24:30.889,+21 ms,ERR,0x83,"Read Coils","83 01 02 08 00 C6 22 83 01 13 89 00 01 36 86",15,ERR
421,04:24:30.911,+22 ms,ERR,0x83,"Read Coils","83 01 01 00 79 F0 83 01 14 B4 00 07 26 3C",14,ERR
422,04:24:30.932,+21 ms,ERR,0x83,"Read Coils","83 01 01 00 79 F0 83 03 00 61 00 02 8B F7",14,ERR
423,04:24:30.957,+25 ms,ERR,0x83,"Read Holding Regs","83 03 04 00 03 00 1E 28 33 83 04 00 03 00 09 DE 2E",17,ERR
424,04:24:31.010,+54 ms,MASTER,0xFD,"FM Event Request","FD 46 10 00 4F 00 00 C9 7D",9,OK
425,04:24:31.028,+17 ms,SLAVE,0x—,"FM Arbitration","FF FF FF FF FF",5,N/A
426,04:24:31.038,+10 ms,SLAVE,0xFD,"FM Event Confirm","FD 46 12 52 5D",5,OK
427,04:24:31.067,+29 ms,MASTER,0x83,"Read Input Regs","83 04 01 0E 00 0E 0F D3",8,OK
428,04:24:31.122,+56 ms,ERR,0x83,"Read Input Regs","83 04 1C 00 06 24 66 FF FE FF FE FF FE FF FE FF FE FF FE FF FE 03 F5 00 12 07 FB 00 0A 00 09 3A EB 83 01 00 00 00 0C 22 2D",41,ERR
429,04:24:31.144,+22 ms,ERR,0x83,"Read Coils","83 01 02 08 00 C6 22 83 01 13 89 00 01 36 86",15,ERR
430,04:24:31.166,+21 ms,ERR,0x83,"Read Coils","83 01 01 00 79 F0 83 01 14 B4 00 07 26 3C",14,ERR
431,04:24:31.211,+45 ms,MASTER,0xFD,"FM Event Request","FD 46 10 00 4F 00 00 C9 7D",9,OK
432,04:24:31.228,+17 ms,SLAVE,0x—,"FM Arbitration","FF FF FF FF FF",5,N/A
433,04:24:31.238,+11 ms,SLAVE,0xFD,"FM Event Confirm","FD 46 12 52 5D",5,OK
434,04:24:31.267,+28 ms,MASTER,0x83,"Read Holding Regs","83 03 00 61 00 02 8B F7",8,OK
435,04:24:31.291,+25 ms,ERR,0x83,"Read Holding Regs","83 03 04 00 03 00 1E 28 33 83 04 00 03 00 09 DE 2E",17,ERR
436,04:24:31.341,+50 ms,ERR,0x83,"Read Input Regs","83 04 12 0F A5 0C 07 07 1C FF FE FF FE 01 D1 00 00 00 00 00 86 54 ED 83 04 01 0E 00 0E 0F D3",31,ERR
437,04:24:31.411,+70 ms,MASTER,0xFD,"FM Event Request","FD 46 10 00 4F 00 00 C9 7D",9,OK
438,04:24:31.428,+17 ms,SLAVE,0x—,"FM Arbitration","FF FF FF FF FF",5,N/A
439,04:24:31.439,+11 ms,SLAVE,0xFD,"FM Event Confirm","FD 46 12 52 5D",5,OK
440,04:24:31.468,+29 ms,MASTER,0x83,"Read Coils","83 01 00 00 00 0C 22 2D",8,OK
441,04:24:31.490,+22 ms,ERR,0x83,"Read Coils","83 01 02 08 00 C6 22 83 01 13 89 00 01 36 86",15,ERR
442,04:24:31.511,+21 ms,ERR,0x83,"Read Coils","83 01 01 00 79 F0 83 01 14 B4 00 07 26 3C",14,ERR
443,04:24:31.532,+21 ms,ERR,0x83,"Read Coils","83 01 01 00 79 F0 83 03 00 61 00 02 8B F7",14,ERR
444,04:24:31.557,+25 ms,ERR,0x83,"Read Holding Regs","83 03 04 00 03 00 1E 28 33 83 04 00 03 00 09 DE 2E",17,ERR
445,04:24:31.611,+55 ms,MASTER,0xFD,"FM Event Request","FD 46 10 00 4F 00 00 C9 7D",9,OK
446,04:24:31.628,+16 ms,SLAVE,0x—,"FM Arbitration","FF FF FF FF FF",5,N/A
447,04:24:31.639,+11 ms,SLAVE,0xFD,"FM Event Confirm","FD 46 12 52 5D",5,OK
448,04:24:31.667,+29 ms,MASTER,0x83,"Read Input Regs","83 04 01 0E 00 0E 0F D3",8,OK
449,04:24:31.723,+55 ms,ERR,0x83,"Read Input Regs","83 04 1C 00 06 24 66 FF FE FF FE FF FE FF FE FF FE FF FE FF FE 03 F5 00 12 07 FF 00 0A 00 0C 0B 28 83 01 00 00 00 0C 22 2D",41,ERR
450,04:24:31.745,+23 ms,ERR,0x83,"Read Coils","83 01 02 08 00 C6 22 83 01 13 89 00 01 36 86",15,ERR
451,04:24:31.766,+21 ms,ERR,0x83,"Read Coils","83 01 01 00 79 F0 83 01 14 B4 00 07 26 3C",14,ERR
452,04:24:31.811,+46 ms,MASTER,0xFD,"FM Event Request","FD 46 10 00 4F 00 00 C9 7D",9,OK
453,04:24:31.828,+16 ms,SLAVE,0x—,"FM Arbitration","FF FF FF FF FF",5,N/A
454,04:24:31.839,+11 ms,SLAVE,0xFD,"FM Event Confirm","FD 46 12 52 5D",5,OK
455,04:24:31.868,+29 ms,MASTER,0x83,"Read Holding Regs","83 03 00 61 00 02 8B F7",8,OK
456,04:24:31.892,+25 ms,ERR,0x83,"Read Holding Regs","83 03 04 00 03 00 1E 28 33 83 04 00 03 00 09 DE 2E",17,ERR
457,04:24:31.942,+49 ms,ERR,0x83,"Read Input Regs","83 04 12 0F CA 0C 07 07 1C FF FE FF FE 01 D1 00 00 00 00 00 86 49 00 83 04 01 0E 00 0E 0F D3",31,ERR
458,04:24:32.011,+70 ms,MASTER,0xFD,"FM Event Request","FD 46 10 00 4F 00 00 C9 7D",9,OK
459,04:24:32.028,+16 ms,SLAVE,0x—,"FM Arbitration","FF FF FF FF FF",5,N/A
460,04:24:32.038,+11 ms,SLAVE,0xFD,"FM Event Confirm","FD 46 12 52 5D",5,OK
461,04:24:32.069,+30 ms,MASTER,0x83,"Read Coils","83 01 00 00 00 0C 22 2D",8,OK
462,04:24:32.090,+21 ms,ERR,0x83,"Read Coils","83 01 02 08 00 C6 22 83 01 13 89 00 01 36 86",15,ERR
463,04:24:32.112,+22 ms,ERR,0x83,"Read Coils","83 01 01 00 79 F0 83 01 14 B4 00 07 26 3C",14,ERR
464,04:24:32.132,+20 ms,ERR,0x83,"Read Coils","83 01 01 00 79 F0 83 03 00 61 00 02 8B F7",14,ERR
465,04:24:32.158,+26 ms,ERR,0x83,"Read Holding Regs","83 03 04 00 03 00 1E 28 33 83 04 00 03 00 09 DE 2E",17,ERR
466,04:24:32.211,+54 ms,MASTER,0xFD,"FM Event Request","FD 46 10 00 4F 00 00 C9 7D",9,OK
467,04:24:32.228,+17 ms,SLAVE,0x—,"FM Arbitration","FF FF FF FF FF",5,N/A
468,04:24:32.238,+10 ms,SLAVE,0xFD,"FM Event Confirm","FD 46 12 52 5D",5,OK
469,04:24:32.268,+29 ms,MASTER,0x83,"Read Input Regs","83 04 01 0E 00 0E 0F D3",8,OK
470,04:24:32.324,+56 ms,ERR,0x83,"Read Input Regs","83 04 1C 00 06 24 66 FF FE FF FE FF FE FF FE FF FE FF FE FF FE 03 F5 00 12 08 02 00 0A 00 0C 66 03 83 01 00 00 00 0C 22 2D",41,ERR
471,04:24:32.347,+23 ms,ERR,0x83,"Read Coils","83 01 02 08 00 C6 22 83 01 13 89 00 01 36 86",15,ERR
472,04:24:32.368,+21 ms,ERR,0x83,"Read Coils","83 01 01 00 79 F0 83 01 14 B4 00 07 26 3C",14,ERR
473,04:24:32.412,+44 ms,MASTER,0xFD,"FM Event Request","FD 46 10 00 4F 00 00 C9 7D",9,OK
474,04:24:32.428,+16 ms,SLAVE,0x—,"FM Arbitration","FF FF FF FF FF",5,N/A
475,04:24:32.439,+11 ms,SLAVE,0xFD,"FM Event Confirm","FD 46 12 52 5D",5,OK
476,04:24:32.468,+28 ms,MASTER,0x83,"Read Holding Regs","83 03 00 61 00 02 8B F7",8,OK
477,04:24:32.492,+25 ms,ERR,0x83,"Read Holding Regs","83 03 04 00 03 00 1E 28 33 83 04 00 03 00 09 DE 2E",17,ERR
478,04:24:32.543,+50 ms,ERR,0x83,"Read Input Regs","83 04 12 0F B9 0C 07 07 1B FF FE FF FE 01 D0 00 00 00 00 00 93 46 63 83 04 01 0E 00 0E 0F D3",31,ERR
479,04:24:32.612,+69 ms,MASTER,0xFD,"FM Event Request","FD 46 10 00 4F 00 00 C9 7D",9,OK
480,04:24:32.628,+16 ms,SLAVE,0x—,"FM Arbitration","FF FF FF FF FF",5,N/A
481,04:24:32.639,+11 ms,SLAVE,0xFD,"FM Event Confirm","FD 46 12 52 5D",5,OK
482,04:24:32.669,+29 ms,MASTER,0x83,"Read Coils","83 01 00 00 00 0C 22 2D",8,OK
483,04:24:32.690,+22 ms,ERR,0x83,"Read Coils","83 01 02 08 00 C6 22 83 01 13 89 00 01 36 86",15,ERR
484,04:24:32.712,+21 ms,ERR,0x83,"Read Coils","83 01 01 00 79 F0 83 01 14 B4 00 07 26 3C",14,ERR
485,04:24:32.733,+21 ms,ERR,0x83,"Read Coils","83 01 01 00 79 F0 83 03 00 61 00 02 8B F7",14,ERR
486,04:24:32.758,+26 ms,ERR,0x83,"Read Holding Regs","83 03 04 00 03 00 1E 28 33 83 04 00 03 00 09 DE 2E",17,ERR
487,04:24:32.812,+54 ms,MASTER,0xFD,"FM Event Request","FD 46 10 00 4F 00 00 C9 7D",9,OK
488,04:24:32.828,+16 ms,SLAVE,0x—,"FM Arbitration","FF FF FF FF FF",5,N/A
489,04:24:32.839,+11 ms,SLAVE,0xFD,"FM Event Confirm","FD 46 12 52 5D",5,OK
490,04:24:32.868,+29 ms,MASTER,0x83,"Read Input Regs","83 04 01 0E 00 0E 0F D3",8,OK
491,04:24:32.924,+55 ms,ERR,0x83,"Read Input Regs","83 04 1C 00 06 24 66 FF FE FF FE FF FE FF FE FF FE FF FE FF FE 03 F5 00 12 07 FD 00 0A 00 0A F2 EA 83 01 00 00 00 0C 22 2D",41,ERR
492,04:24:32.947,+23 ms,ERR,0x83,"Read Coils","83 01 02 08 00 C6 22 83 01 13 89 00 01 36 86",15,ERR
493,04:24:32.968,+21 ms,ERR,0x83,"Read Coils","83 01 01 00 79 F0 83 01 14 B4 00 07 26 3C",14,ERR
494,04:24:33.012,+45 ms,MASTER,0xFD,"FM Event Request","FD 46 10 00 4F 00 00 C9 7D",9,OK
495,04:24:33.028,+16 ms,SLAVE,0x—,"FM Arbitration","FF FF FF FF FF",5,N/A
496,04:24:33.039,+11 ms,SLAVE,0xFD,"FM Event Confirm","FD 46 12 52 5D",5,OK
497,04:24:33.069,+29 ms,MASTER,0x83,"Read Holding Regs","83 03 00 61 00 02 8B F7",8,OK
498,04:24:33.093,+24 ms,ERR,0x83,"Read Holding Regs","83 03 04 00 03 00 1E 28 33 83 04 00 03 00 09 DE 2E",17,ERR
499,04:24:33.142,+49 ms,ERR,0x83,"Read Input Regs","83 04 12 0F C0 0C 07 07 1B FF FE FF FE 01 D0 00 00 00 00 00 93 B5 EA 83 04 01 0E 00 0E 0F D3",31,ERR
500,04:24:33.212,+70 ms,MASTER,0xFD,"FM Event Request","FD 46 10 00 4F 00 00 C9 7D",9,OK
501,04:24:33.228,+16 ms,SLAVE,0x—,"FM Arbitration","FF FF FF FF FF",5,N/A
502,04:24:33.239,+11 ms,SLAVE,0xFD,"FM Event Confirm","FD 46 12 52 5D",5,OK
503,04:24:33.268,+29 ms,MASTER,0x83,"Read Coils","83 01 00 00 00 0C 22 2D",8,OK
504,04:24:33.291,+22 ms,ERR,0x83,"Read Coils","83 01 02 08 00 C6 22 83 01 13 89 00 01 36 86",15,ERR
505,04:24:33.313,+22 ms,ERR,0x83,"Read Coils","83 01 01 00 79 F0 83 01 14 B4 00 07 26 3C",14,ERR
506,04:24:33.333,+21 ms,ERR,0x83,"Read Coils","83 01 01 00 79 F0 83 03 00 61 00 02 8B F7",14,ERR
507,04:24:33.358,+25 ms,ERR,0x83,"Read Holding Regs","83 03 04 00 03 00 1E 28 33 83 04 00 03 00 09 DE 2E",17,ERR
508,04:24:33.412,+54 ms,MASTER,0xFD,"FM Event Request","FD 46 10 00 4F 00 00 C9 7D",9,OK
509,04:24:33.429,+17 ms,SLAVE,0x—,"FM Arbitration","FF FF FF FF FF",5,N/A
510,04:24:33.440,+11 ms,SLAVE,0xFD,"FM Event Confirm","FD 46 12 52 5D",5,OK
511,04:24:33.469,+29 ms,MASTER,0x83,"Read Input Regs","83 04 01 0E 00 0E 0F D3",8,OK
512,04:24:33.525,+56 ms,ERR,0x83,"Read Input Regs","83 04 1C 00 06 24 66 FF FE FF FE FF FE FF FE FF FE FF FE FF FE 03 F5 00 12 07 FC 00 0A 00 08 4E EB 83 01 00 00 00 0C 22 2D",41,ERR
513,04:24:33.548,+23 ms,ERR,0x83,"Read Coils","83 01 02 08 00 C6 22 83 01 13 89 00 01 36 86",15,ERR
514,04:24:33.568,+21 ms,ERR,0x83,"Read Coils","83 01 01 00 79 F0 83 01 14 B4 00 07 26 3C",14,ERR
515,04:24:33.612,+44 ms,MASTER,0xFD,"FM Event Request","FD 46 10 00 4F 00 00 C9 7D",9,OK
516,04:24:33.629,+17 ms,SLAVE,0x—,"FM Arbitration","FF FF FF FF FF",5,N/A
517,04:24:33.640,+11 ms,SLAVE,0xFD,"FM Event Confirm","FD 46 12 52 5D",5,OK
518,04:24:33.668,+28 ms,MASTER,0x83,"Read Holding Regs","83 03 00 61 00 02 8B F7",8,OK
519,04:24:33.693,+25 ms,ERR,0x83,"Read Holding Regs","83 03 04 00 03 00 1E 28 33 83 04 00 03 00 09 DE 2E",17,ERR
520,04:24:33.742,+49 ms,ERR,0x83,"Read Input Regs","83 04 12 0F A7 0C 08 07 19 FF FE FF FE 01 D0 00 00 00 00 00 8B 67 89 83 04 01 0E 00 0E 0F D3",31,ERR
521,04:24:33.813,+71 ms,MASTER,0xFD,"FM Event Request","FD 46 10 00 4F 00 00 C9 7D",9,OK
522,04:24:33.829,+16 ms,SLAVE,0x—,"FM Arbitration","FF FF FF FF FF",5,N/A
523,04:24:33.840,+11 ms,SLAVE,0xFD,"FM Event Confirm","FD 46 12 52 5D",5,OK
524,04:24:33.869,+29 ms,MASTER,0x83,"Read Coils","83 01 00 00 00 0C 22 2D",8,OK
525,04:24:33.891,+22 ms,ERR,0x83,"Read Coils","83 01 02 08 00 C6 22 83 01 13 89 00 01 36 86",15,ERR
526,04:24:33.913,+21 ms,ERR,0x83,"Read Coils","83 01 01 00 79 F0 83 01 14 B4 00 07 26 3C",14,ERR
527,04:24:33.933,+21 ms,ERR,0x83,"Read Coils","83 01 01 00 79 F0 83 03 00 61 00 02 8B F7",14,ERR
528,04:24:33.958,+25 ms,ERR,0x83,"Read Holding Regs","83 03 04 00 03 00 1E 28 33 83 04 00 03 00 09 DE 2E",17,ERR
529,04:24:34.013,+54 ms,MASTER,0xFD,"FM Event Request","FD 46 10 00 4F 00 00 C9 7D",9,OK
530,04:24:34.029,+16 ms,SLAVE,0x—,"FM Arbitration","FF FF FF FF FF",5,N/A
531,04:24:34.040,+11 ms,SLAVE,0xFD,"FM Event Confirm","FD 46 12 52 5D",5,OK
532,04:24:34.069,+29 ms,MASTER,0x83,"Read Input Regs","83 04 01 0E 00 0E 0F D3",8,OK
533,04:24:34.126,+57 ms,ERR,0x83,"Read Input Regs","83 04 1C 00 06 24 66 FF FE FF FE FF FE FF FE FF FE FF FE FF FE 03 F5 00 11 07 FF 00 0A 00 0E B9 E9 83 01 00 00 00 0C 22 2D",41,ERR
534,04:24:34.148,+22 ms,ERR,0x83,"Read Coils","83 01 02 08 00 C6 22 83 01 13 89 00 01 36 86",15,ERR
535,04:24:34.169,+22 ms,ERR,0x83,"Read Coils","83 01 01 00 79 F0 83 01 14 B4 00 07 26 3C",14,ERR
536,04:24:34.213,+44 ms,MASTER,0xFD,"FM Event Request","FD 46 10 00 4F 00 00 C9 7D",9,OK
537,04:24:34.229,+16 ms,SLAVE,0x—,"FM Arbitration","FF FF FF FF FF",5,N/A
538,04:24:34.240,+11 ms,SLAVE,0xFD,"FM Event Confirm","FD 46 12 52 5D",5,OK
539,04:24:34.269,+29 ms,MASTER,0x83,"Read Holding Regs","83 03 00 61 00 02 8B F7",8,OK
540,04:24:34.294,+25 ms,ERR,0x83,"Read Holding Regs","83 03 04 00 03 00 1E 28 33 83 04 00 03 00 09 DE 2E",17,ERR
541,04:24:34.344,+49 ms,ERR,0x83,"Read Input Regs","83 04 12 0F 9C 0C 08 07 19 FF FE FF FE 01 D0 00 00 00 00 00 8F 05 77 83 04 01 0E 00 0E 0F D3",31,ERR
542,04:24:34.413,+70 ms,MASTER,0xFD,"FM Event Request","FD 46 10 00 4F 00 00 C9 7D",9,OK
543,04:24:34.429,+16 ms,SLAVE,0x—,"FM Arbitration","FF FF FF FF FF",5,N/A
544,04:24:34.440,+11 ms,SLAVE,0xFD,"FM Event Confirm","FD 46 12 52 5D",5,OK
545,04:24:34.469,+29 ms,MASTER,0x83,"Read Coils","83 01 00 00 00 0C 22 2D",8,OK
546,04:24:34.491,+22 ms,ERR,0x83,"Read Coils","83 01 02 08 00 C6 22 83 01 13 89 00 01 36 86",15,ERR
547,04:24:34.513,+22 ms,ERR,0x83,"Read Coils","83 01 01 00 79 F0 83 01 14 B4 00 07 26 3C",14,ERR
548,04:24:34.534,+21 ms,ERR,0x83,"Read Coils","83 01 01 00 79 F0 83 03 00 61 00 02 8B F7",14,ERR
549,04:24:34.559,+25 ms,ERR,0x83,"Read Holding Regs","83 03 04 00 03 00 1E 28 33 83 04 00 03 00 09 DE 2E",17,ERR
550,04:24:34.613,+54 ms,MASTER,0xFD,"FM Event Request","FD 46 10 00 4F 00 00 C9 7D",9,OK
551,04:24:34.630,+17 ms,SLAVE,0x—,"FM Arbitration","FF FF FF FF FF",5,N/A
552,04:24:34.640,+10 ms,SLAVE,0xFD,"FM Event Confirm","FD 46 12 52 5D",5,OK
553,04:24:34.669,+29 ms,MASTER,0x83,"Read Input Regs","83 04 01 0E 00 0E 0F D3",8,OK
554,04:24:34.726,+57 ms,ERR,0x83,"Read Input Regs","83 04 1C 00 06 24 66 FF FE FF FE FF FE FF FE FF FE FF FE FF FE 03 F5 00 11 07 FD 00 0A 00 0B 00 2A 83 01 00 00 00 0C 22 2D",41,ERR
555,04:24:34.748,+22 ms,ERR,0x83,"Read Coils","83 01 02 08 00 C6 22 83 01 13 89 00 01 36 86",15,ERR
556,04:24:34.769,+22 ms,ERR,0x83,"Read Coils","83 01 01 00 79 F0 83 01 14 B4 00 07 26 3C",14,ERR
557,04:24:34.813,+44 ms,MASTER,0xFD,"FM Event Request","FD 46 10 00 4F 00 00 C9 7D",9,OK
558,04:24:34.830,+17 ms,SLAVE,0x—,"FM Arbitration","FF FF FF FF FF",5,N/A
559,04:24:34.840,+10 ms,SLAVE,0xFD,"FM Event Confirm","FD 46 12 52 5D",5,OK
560,04:24:34.869,+29 ms,MASTER,0x83,"Read Holding Regs","83 03 00 61 00 02 8B F7",8,OK
561,04:24:34.894,+25 ms,ERR,0x83,"Read Holding Regs","83 03 04 00 03 00 1E 28 33 83 04 00 03 00 09 DE 2E",17,ERR
562,04:24:34.943,+49 ms,ERR,0x83,"Read Input Regs","83 04 12 0F A8 0C 09 07 1D FF FE FF FE 01 D0 00 00 00 00 00 8F 9C 3D 83 04 01 0E 00 0E 0F D3",31,ERR
563,04:24:35.014,+71 ms,MASTER,0xFD,"FM Event Request","FD 46 10 00 4F 00 00 C9 7D",9,OK
564,04:24:35.030,+16 ms,SLAVE,0x—,"FM Arbitration","FF FF FF FF FF",5,N/A
565,04:24:35.041,+11 ms,SLAVE,0xFD,"FM Event Confirm","FD 46 12 52 5D",5,OK
566,04:24:35.070,+29 ms,MASTER,0x83,"Read Coils","83 01 00 00 00 0C 22 2D",8,OK
567,04:24:35.092,+22 ms,ERR,0x83,"Read Coils","83 01 02 08 00 C6 22 83 01 13 89 00 01 36 86",15,ERR
568,04:24:35.114,+22 ms,ERR,0x83,"Read Coils","83 01 01 00 79 F0 83 01 14 B4 00 07 26 3C",14,ERR
569,04:24:35.135,+21 ms,ERR,0x83,"Read Coils","83 01 01 00 79 F0 83 03 00 61 00 02 8B F7",14,ERR
570,04:24:35.160,+25 ms,ERR,0x83,"Read Holding Regs","83 03 04 00 03 00 1E 28 33 83 04 00 03 00 09 DE 2E",17,ERR
571,04:24:35.214,+54 ms,MASTER,0xFD,"FM Event Request","FD 46 10 00 4F 00 00 C9 7D",9,OK
572,04:24:35.230,+16 ms,SLAVE,0x—,"FM Arbitration","FF FF FF FF FF",5,N/A
573,04:24:35.241,+11 ms,SLAVE,0xFD,"FM Event Confirm","FD 46 12 52 5D",5,OK
574,04:24:35.270,+29 ms,MASTER,0x83,"Read Input Regs","83 04 01 0E 00 0E 0F D3",8,OK
575,04:24:35.325,+55 ms,ERR,0x83,"Read Input Regs","83 04 1C 00 06 24 66 FF FE FF FE FF FE FF FE FF FE FF FE FF FE 03 F5 00 11 07 F9 00 0A 00 0B F1 EA 83 01 00 00 00 0C 22 2D",41,ERR
576,04:24:35.347,+23 ms,ERR,0x83,"Read Coils","83 01 02 08 00 C6 22 83 01 13 89 00 01 36 86",15,ERR
577,04:24:35.368,+21 ms,ERR,0x83,"Read Coils","83 01 01 00 79 F0 83 01 14 B4 00 07 26 3C",14,ERR
578,04:24:35.414,+45 ms,MASTER,0xFD,"FM Event Request","FD 46 10 00 4F 00 00 C9 7D",9,OK
579,04:24:35.430,+16 ms,SLAVE,0x—,"FM Arbitration","FF FF FF FF FF",5,N/A
580,04:24:35.441,+11 ms,SLAVE,0xFD,"FM Event Confirm","FD 46 12 52 5D",5,OK
581,04:24:35.470,+29 ms,MASTER,0x83,"Read Holding Regs","83 03 00 61 00 02 8B F7",8,OK
582,04:24:35.495,+25 ms,ERR,0x83,"Read Holding Regs","83 03 04 00 03 00 1E 28 33 83 04 00 03 00 09 DE 2E",17,ERR
583,04:24:35.543,+48 ms,ERR,0x83,"Read Input Regs","83 04 12 0F 83 0C 09 07 1D FF FE FF FE 01 D0 00 00 00 00 00 99 73 0B 83 04 01 0E 00 0E 0F D3",31,ERR
584,04:24:35.614,+71 ms,MASTER,0xFD,"FM Event Request","FD 46 10 00 4F 00 00 C9 7D",9,OK
585,04:24:35.630,+16 ms,SLAVE,0x—,"FM Arbitration","FF FF FF FF FF",5,N/A
586,04:24:35.641,+11 ms,SLAVE,0xFD,"FM Event Confirm","FD 46 12 52 5D",5,OK
587,04:24:35.670,+29 ms,MASTER,0x83,"Read Coils","83 01 00 00 00 0C 22 2D",8,OK
588,04:24:35.692,+22 ms,ERR,0x83,"Read Coils","83 01 02 08 00 C6 22 83 01 13 89 00 01 36 86",15,ERR
589,04:24:35.714,+22 ms,ERR,0x83,"Read Coils","83 01 01 00 79 F0 83 01 14 B4 00 07 26 3C",14,ERR
590,04:24:35.735,+21 ms,ERR,0x83,"Read Coils","83 01 01 00 79 F0 83 03 00 61 00 02 8B F7",14,ERR
591,04:24:35.760,+25 ms,ERR,0x83,"Read Holding Regs","83 03 04 00 03 00 1E 28 33 83 04 00 03 00 09 DE 2E",17,ERR
592,04:24:35.814,+54 ms,MASTER,0xFD,"FM Event Request","FD 46 10 00 4F 00 00 C9 7D",9,OK
593,04:24:35.831,+17 ms,SLAVE,0x—,"FM Arbitration","FF FF FF FF FF",5,N/A
594,04:24:35.841,+10 ms,SLAVE,0xFD,"FM Event Confirm","FD 46 12 52 5D",5,OK
595,04:24:35.870,+29 ms,MASTER,0x83,"Read Input Regs","83 04 01 0E 00 0E 0F D3",8,OK
596,04:24:35.927,+57 ms,ERR,0x83,"Read Input Regs","83 04 1C 00 06 24 66 FF FE FF FE FF FE FF FE FF FE FF FE FF FE 03 F5 00 11 08 03 00 0A 00 0D A9 03 83 01 00 00 00 0C 22 2D",41,ERR
597,04:24:35.950,+23 ms,ERR,0x83,"Read Coils","83 01 02 08 00 C6 22 83 01 13 89 00 01 36 86",15,ERR
598,04:24:35.971,+21 ms,ERR,0x83,"Read Coils","83 01 01 00 79 F0 83 01 14 B4 00 07 26 3C",14,ERR
599,04:24:36.014,+43 ms,MASTER,0xFD,"FM Event Request","FD 46 10 00 4F 00 00 C9 7D",9,OK
600,04:24:36.031,+17 ms,SLAVE,0x—,"FM Arbitration","FF FF FF FF FF",5,N/A
601,04:24:36.041,+10 ms,SLAVE,0xFD,"FM Event Confirm","FD 46 12 52 5D",5,OK
602,04:24:36.070,+29 ms,MASTER,0x83,"Read Holding Regs","83 03 00 61 00 02 8B F7",8,OK
603,04:24:36.095,+25 ms,ERR,0x83,"Read Holding Regs","83 03 04 00 03 00 1E 28 33 83 04 00 03 00 09 DE 2E",17,ERR
604,04:24:36.144,+50 ms,ERR,0x83,"Read Input Regs","83 04 12 0F A0 0C 09 07 1D FF FE FF FE 01 D0 00 00 00 00 00 99 9A 31 83 04 01 0E 00 0E 0F D3",31,ERR
605,04:24:36.215,+70 ms,MASTER,0xFD,"FM Event Request","FD 46 10 00 4F 00 00 C9 7D",9,OK
606,04:24:36.231,+16 ms,SLAVE,0x—,"FM Arbitration","FF FF FF FF FF",5,N/A
607,04:24:36.242,+11 ms,SLAVE,0xFD,"FM Event Confirm","FD 46 12 52 5D",5,OK
608,04:24:36.271,+29 ms,MASTER,0x83,"Read Coils","83 01 00 00 00 0C 22 2D",8,OK
609,04:24:36.293,+22 ms,ERR,0x83,"Read Coils","83 01 02 08 00 C6 22 83 01 13 89 00 01 36 86",15,ERR
610,04:24:36.314,+21 ms,ERR,0x83,"Read Coils","83 01 01 00 79 F0 83 01 14 B4 00 07 26 3C",14,ERR
611,04:24:36.336,+21 ms,ERR,0x83,"Read Coils","83 01 01 00 79 F0 83 03 00 61 00 02 8B F7",14,ERR
612,04:24:36.361,+25 ms,ERR,0x83,"Read Holding Regs","83 03 04 00 03 00 1E 28 33 83 04 00 03 00 09 DE 2E",17,ERR
613,04:24:36.414,+54 ms,MASTER,0xFD,"FM Event Request","FD 46 10 00 4F 00 00 C9 7D",9,OK
614,04:24:36.431,+16 ms,SLAVE,0x—,"FM Arbitration","FF FF FF FF FF",5,N/A
615,04:24:36.441,+11 ms,SLAVE,0xFD,"FM Event Confirm","FD 46 12 52 5D",5,OK
616,04:24:36.471,+29 ms,MASTER,0x83,"Read Input Regs","83 04 01 0E 00 0E 0F D3",8,OK
617,04:24:36.530,+60 ms,ERR,0x83,"Read Input Regs","83 04 1C 00 06 24 66 FF FE FF FE FF FE FF FE FF FE FF FE FF FE 03 F5 00 11 07 FB 00 0A 00 0B 88 2A 83 01 00 00 00 0C 22 2D",41,ERR
618,04:24:36.553,+23 ms,ERR,0x83,"Read Coils","83 01 02 08 00 C6 22 83 01 13 89 00 01 36 86",15,ERR
619,04:24:36.575,+21 ms,ERR,0x83,"Read Coils","83 01 01 00 79 F0 83 01 14 B4 00 07 26 3C",14,ERR
620,04:24:36.615,+40 ms,MASTER,0xFD,"FM Event Request","FD 46 10 00 4F 00 00 C9 7D",9,OK
621,04:24:36.631,+16 ms,SLAVE,0x—,"FM Arbitration","FF FF FF FF FF",5,N/A
622,04:24:36.642,+11 ms,SLAVE,0xFD,"FM Event Confirm","FD 46 12 52 5D",5,OK
623,04:24:36.671,+29 ms,MASTER,0x83,"Read Holding Regs","83 03 00 61 00 02 8B F7",8,OK
624,04:24:36.696,+25 ms,ERR,0x83,"Read Holding Regs","83 03 04 00 03 00 1E 28 33 83 04 00 03 00 09 DE 2E",17,ERR
625,04:24:36.732,+37 ms,MASTER,0x83,"Read Input Regs","83 04 12 0F 9C 0C 08 07 1D FF FE FF FE 01 D0 00 00 00 00 00 85 8B F4",23,OK
626,04:24:36.744,+12 ms,SLAVE,0x83,"Read Input Regs","83 04 01 0E 00 0E 0F D3",8,OK
627,04:24:36.814,+70 ms,MASTER,0xFD,"FM Event Request","FD 46 10 00 4F 00 00 C9 7D",9,OK
628,04:24:36.831,+16 ms,SLAVE,0x—,"FM Arbitration","FF FF FF FF FF",5,N/A
629,04:24:36.842,+11 ms,SLAVE,0xFD,"FM Event Confirm","FD 46 12 52 5D",5,OK
630,04:24:36.871,+29 ms,MASTER,0x83,"Read Coils","83 01 00 00 00 0C 22 2D",8,OK
631,04:24:36.893,+22 ms,ERR,0x83,"Read Coils","83 01 02 08 00 C6 22 83 01 13 89 00 01 36 86",15,ERR
632,04:24:36.914,+21 ms,ERR,0x83,"Read Coils","83 01 01 00 79 F0 83 01 14 B4 00 07 26 3C",14,ERR
633,04:24:36.935,+21 ms,ERR,0x83,"Read Coils","83 01 01 00 79 F0 83 03 00 61 00 02 8B F7",14,ERR
634,04:24:36.960,+25 ms,ERR,0x83,"Read Holding Regs","83 03 04 00 03 00 1E 28 33 83 04 00 03 00 09 DE 2E",17,ERR
635,04:24:37.014,+54 ms,MASTER,0xFD,"FM Event Request","FD 46 10 00 4F 00 00 C9 7D",9,OK
636,04:24:37.031,+16 ms,SLAVE,0x—,"FM Arbitration","FF FF FF FF FF",5,N/A
637,04:24:37.041,+11 ms,SLAVE,0xFD,"FM Event Confirm","FD 46 12 52 5D",5,OK
638,04:24:37.071,+29 ms,MASTER,0x83,"Read Input Regs","83 04 01 0E 00 0E 0F D3",8,OK
639,04:24:37.127,+56 ms,ERR,0x83,"Read Input Regs","83 04 1C 00 06 24 66 FF FE FF FE FF FE FF FE FF FE FF FE FF FE 03 F5 00 11 07 FE 00 0A 00 09 C5 EB 83 01 00 00 00 0C 22 2D",41,ERR
640,04:24:37.149,+22 ms,ERR,0x83,"Read Coils","83 01 02 08 00 C6 22 83 01 13 89 00 01 36 86",15,ERR
641,04:24:37.170,+21 ms,ERR,0x83,"Read Coils","83 01 01 00 79 F0 83 01 14 B4 00 07 26 3C",14,ERR
642,04:24:37.214,+44 ms,MASTER,0xFD,"FM Event Request","FD 46 10 00 4F 00 00 C9 7D",9,OK
643,04:24:37.232,+17 ms,SLAVE,0x—,"FM Arbitration","FF FF FF FF FF",5,N/A
644,04:24:37.242,+10 ms,SLAVE,0xFD,"FM Event Confirm","FD 46 12 52 5D",5,OK
645,04:24:37.271,+29 ms,MASTER,0x83,"Read Holding Regs","83 03 00 61 00 02 8B F7",8,OK
646,04:24:37.295,+25 ms,ERR,0x83,"Read Holding Regs","83 03 04 00 03 00 1E 28 33 83 04 00 03 00 09 DE 2E",17,ERR
647,04:24:37.344,+49 ms,ERR,0x83,"Read Input Regs","83 04 12 0F 93 0C 08 07 1D FF FE FF FE 01 D0 00 00 00 00 00 85 BE 07 83 04 01 0E 00 0E 0F D3",31,ERR
648,04:24:37.414,+70 ms,MASTER,0xFD,"FM Event Request","FD 46 10 00 4F 00 00 C9 7D",9,OK
649,04:24:37.431,+17 ms,SLAVE,0x—,"FM Arbitration","FF FF FF FF FF",5,N/A
650,04:24:37.442,+11 ms,SLAVE,0xFD,"FM Event Confirm","FD 46 12 52 5D",5,OK
651,04:24:37.472,+29 ms,MASTER,0x83,"Read Coils","83 01 00 00 00 0C 22 2D",8,OK
652,04:24:37.493,+21 ms,ERR,0x83,"Read Coils","83 01 02 08 00 C6 22 83 01 13 89 00 01 36 86",15,ERR
653,04:24:37.515,+22 ms,ERR,0x83,"Read Coils","83 01 01 00 79 F0 83 01 14 B4 00 07 26 3C",14,ERR
654,04:24:37.536,+21 ms,ERR,0x83,"Read Coils","83 01 01 00 79 F0 83 03 00 61 00 02 8B F7",14,ERR
655,04:24:37.561,+25 ms,ERR,0x83,"Read Holding Regs","83 03 04 00 03 00 1E 28 33 83 04 00 03 00 09 DE 2E",17,ERR
656,04:24:37.615,+54 ms,MASTER,0xFD,"FM Event Request","FD 46 10 00 4F 00 00 C9 7D",9,OK
657,04:24:37.632,+16 ms,SLAVE,0x—,"FM Arbitration","FF FF FF FF FF",5,N/A
658,04:24:37.642,+11 ms,SLAVE,0xFD,"FM Event Confirm","FD 46 12 52 5D",5,OK
659,04:24:37.672,+29 ms,MASTER,0x83,"Read Input Regs","83 04 01 0E 00 0E 0F D3",8,OK
660,04:24:37.728,+57 ms,ERR,0x83,"Read Input Regs","83 04 1C 00 06 24 66 FF FE FF FE FF FE FF FE FF FE FF FE FF FE 03 F5 00 11 07 EF 00 0A 00 11 39 E2 83 01 00 00 00 0C 22 2D",41,ERR
661,04:24:37.751,+23 ms,ERR,0x83,"Read Coils","83 01 02 08 00 C6 22 83 01 13 89 00 01 36 86",15,ERR
662,04:24:37.772,+21 ms,ERR,0x83,"Read Coils","83 01 01 00 79 F0 83 01 14 B4 00 07 26 3C",14,ERR
663,04:24:37.815,+44 ms,MASTER,0xFD,"FM Event Request","FD 46 10 00 4F 00 00 C9 7D",9,OK
664,04:24:37.832,+16 ms,SLAVE,0x—,"FM Arbitration","FF FF FF FF FF",5,N/A
665,04:24:37.842,+11 ms,SLAVE,0xFD,"FM Event Confirm","FD 46 12 52 5D",5,OK
666,04:24:37.872,+29 ms,MASTER,0x83,"Read Holding Regs","83 03 00 61 00 02 8B F7",8,OK
667,04:24:37.896,+25 ms,ERR,0x83,"Read Holding Regs","83 03 04 00 03 00 1E 28 33 83 04 00 03 00 09 DE 2E",17,ERR
668,04:24:37.946,+49 ms,ERR,0x83,"Read Input Regs","83 04 12 0F 82 0C 08 07 1B FF FE FF FE 01 D0 00 00 00 00 00 8F 6B 93 83 04 01 0E 00 0E 0F D3",31,ERR
669,04:24:38.015,+69 ms,MASTER,0xFD,"FM Event Request","FD 46 10 00 4F 00 00 C9 7D",9,OK
670,04:24:38.031,+16 ms,SLAVE,0x—,"FM Arbitration","FF FF FF FF FF",5,N/A
671,04:24:38.042,+11 ms,SLAVE,0xFD,"FM Event Confirm","FD 46 12 52 5D",5,OK
672,04:24:38.071,+29 ms,MASTER,0x83,"Read Coils","83 01 00 00 00 0C 22 2D",8,OK
673,04:24:38.094,+22 ms,ERR,0x83,"Read Coils","83 01 02 08 00 C6 22 83 01 13 89 00 01 36 86",15,ERR
674,04:24:38.116,+22 ms,ERR,0x83,"Read Coils","83 01 01 00 79 F0 83 01 14 B4 00 07 26 3C",14,ERR
675,04:24:38.136,+20 ms,ERR,0x83,"Read Coils","83 01 01 00 79 F0 83 03 00 61 00 02 8B F7",14,ERR
676,04:24:38.162,+26 ms,ERR,0x83,"Read Holding Regs","83 03 04 00 03 00 1E 28 33 83 04 00 03 00 09 DE 2E",17,ERR
677,04:24:38.215,+54 ms,MASTER,0xFD,"FM Event Request","FD 46 10 00 4F 00 00 C9 7D",9,OK
678,04:24:38.232,+16 ms,SLAVE,0x—,"FM Arbitration","FF FF FF FF FF",5,N/A
679,04:24:38.242,+11 ms,SLAVE,0xFD,"FM Event Confirm","FD 46 12 52 5D",5,OK
680,04:24:38.272,+29 ms,MASTER,0x83,"Read Input Regs","83 04 01 0E 00 0E 0F D3",8,OK
681,04:24:38.328,+57 ms,ERR,0x83,"Read Input Regs","83 04 1C 00 06 24 66 FF FE FF FE FF FE FF FE FF FE FF FE FF FE 03 F5 00 11 08 03 00 0A 00 0D A9 03 83 01 00 00 00 0C 22 2D",41,ERR
682,04:24:38.351,+23 ms,ERR,0x83,"Read Coils","83 01 02 08 00 C6 22 83 01 13 89 00 01 36 86",15,ERR
683,04:24:38.372,+21 ms,ERR,0x83,"Read Coils","83 01 01 00 79 F0 83 01 14 B4 00 07 26 3C",14,ERR
684,04:24:38.416,+44 ms,MASTER,0xFD,"FM Event Request","FD 46 10 00 4F 00 00 C9 7D",9,OK
685,04:24:38.432,+17 ms,SLAVE,0x—,"FM Arbitration","FF FF FF FF FF",5,N/A
686,04:24:38.442,+10 ms,SLAVE,0xFD,"FM Event Confirm","FD 46 12 52 5D",5,OK
687,04:24:38.471,+29 ms,MASTER,0x83,"Read Holding Regs","83 03 00 61 00 02 8B F7",8,OK
688,04:24:38.496,+25 ms,ERR,0x83,"Read Holding Regs","83 03 04 00 03 00 1E 28 33 83 04 00 03 00 09 DE 2E",17,ERR
689,04:24:38.534,+38 ms,MASTER,0x83,"Read Input Regs","83 04 12 0F 9A 0C 06 07 1D FF FE FF FE 01 D0 00 00 00 00 00 8F 66 56",23,OK
690,04:24:38.547,+13 ms,SLAVE,0x83,"Read Input Regs","83 04 01 0E 00 0E 0F D3",8,OK
691,04:24:38.615,+69 ms,MASTER,0xFD,"FM Event Request","FD 46 10 00 4F 00 00 C9 7D",9,OK
692,04:24:38.632,+17 ms,SLAVE,0x—,"FM Arbitration","FF FF FF FF FF",5,N/A
693,04:24:38.643,+11 ms,SLAVE,0xFD,"FM Event Confirm","FD 46 12 52 5D",5,OK
694,04:24:38.672,+29 ms,MASTER,0x83,"Read Coils","83 01 00 00 00 0C 22 2D",8,OK
695,04:24:38.694,+22 ms,ERR,0x83,"Read Coils","83 01 02 08 00 C6 22 83 01 13 89 00 01 36 86",15,ERR
696,04:24:38.716,+21 ms,ERR,0x83,"Read Coils","83 01 01 00 79 F0 83 01 14 B4 00 07 26 3C",14,ERR
697,04:24:38.737,+21 ms,ERR,0x83,"Read Coils","83 01 01 00 79 F0 83 03 00 61 00 02 8B F7",14,ERR
698,04:24:38.761,+25 ms,ERR,0x83,"Read Holding Regs","83 03 04 00 03 00 1E 28 33 83 04 00 03 00 09 DE 2E",17,ERR
699,04:24:38.816,+55 ms,MASTER,0xFD,"FM Event Request","FD 46 10 00 4F 00 00 C9 7D",9,OK
700,04:24:38.832,+16 ms,SLAVE,0x—,"FM Arbitration","FF FF FF FF FF",5,N/A
701,04:24:38.843,+11 ms,SLAVE,0xFD,"FM Event Confirm","FD 46 12 52 5D",5,OK
702,04:24:38.872,+29 ms,MASTER,0x83,"Read Input Regs","83 04 01 0E 00 0E 0F D3",8,OK
703,04:24:38.928,+56 ms,ERR,0x83,"Read Input Regs","83 04 1C 00 06 24 66 FF FE FF FE FF FE FF FE FF FE FF FE FF FE 03 F5 00 11 07 FB 00 0A 00 0B 88 2A 83 01 00 00 00 0C 22 2D",41,ERR
704,04:24:38.951,+23 ms,ERR,0x83,"Read Coils","83 01 02 08 00 C6 22 83 01 13 89 00 01 36 86",15,ERR
705,04:24:38.971,+21 ms,ERR,0x83,"Read Coils","83 01 01 00 79 F0 83 01 14 B4 00 07 26 3C",14,ERR
706,04:24:39.016,+45 ms,MASTER,0xFD,"FM Event Request","FD 46 10 00 4F 00 00 C9 7D",9,OK
707,04:24:39.032,+16 ms,SLAVE,0x—,"FM Arbitration","FF FF FF FF FF",5,N/A
708,04:24:39.043,+11 ms,SLAVE,0xFD,"FM Event Confirm","FD 46 12 52 5D",5,OK
709,04:24:39.072,+29 ms,MASTER,0x83,"Read Holding Regs","83 03 00 61 00 02 8B F7",8,OK
710,04:24:39.097,+25 ms,ERR,0x83,"Read Holding Regs","83 03 04 00 03 00 1E 28 33 83 04 00 03 00 09 DE 2E",17,ERR
711,04:24:39.146,+49 ms,ERR,0x83,"Read Input Regs","83 04 12 0F 89 0C 06 07 1D FF FE FF FE 01 D0 00 00 00 00 00 97 9B 69 83 04 01 0E 00 0E 0F D3",31,ERR
712,04:24:39.216,+70 ms,MASTER,0xFD,"FM Event Request","FD 46 10 00 4F 00 00 C9 7D",9,OK
713,04:24:39.233,+16 ms,SLAVE,0x—,"FM Arbitration","FF FF FF FF FF",5,N/A
714,04:24:39.244,+12 ms,SLAVE,0xFD,"FM Event Confirm","FD 46 12 52 5D",5,OK
715,04:24:39.272,+28 ms,MASTER,0x83,"Read Coils","83 01 00 00 00 0C 22 2D",8,OK
716,04:24:39.294,+22 ms,ERR,0x83,"Read Coils","83 01 02 08 00 C6 22 83 01 13 89 00 01 36 86",15,ERR
717,04:24:39.317,+22 ms,ERR,0x83,"Read Coils","83 01 01 00 79 F0 83 01 14 B4 00 07 26 3C",14,ERR
718,04:24:39.337,+21 ms,ERR,0x83,"Read Coils","83 01 01 00 79 F0 83 03 00 61 00 02 8B F7",14,ERR
719,04:24:39.362,+25 ms,ERR,0x83,"Read Holding Regs","83 03 04 00 03 00 1E 28 33 83 04 00 03 00 09 DE 2E",17,ERR
720,04:24:39.416,+54 ms,MASTER,0xFD,"FM Event Request","FD 46 10 00 4F 00 00 C9 7D",9,OK
721,04:24:39.432,+16 ms,SLAVE,0x—,"FM Arbitration","FF FF FF FF FF",5,N/A
722,04:24:39.443,+11 ms,SLAVE,0xFD,"FM Event Confirm","FD 46 12 52 5D",5,OK
723,04:24:39.472,+29 ms,MASTER,0x83,"Read Input Regs","83 04 01 0E 00 0E 0F D3",8,OK
724,04:24:39.530,+57 ms,ERR,0x83,"Read Input Regs","83 04 1C 00 06 24 66 FF FE FF FE FF FE FF FE FF FE FF FE FF FE 03 F5 00 11 07 F5 00 0A 00 09 60 2A 83 01 00 00 00 0C 22 2D",41,ERR
725,04:24:39.552,+23 ms,ERR,0x83,"Read Coils","83 01 02 08 00 C6 22 83 01 13 89 00 01 36 86",15,ERR
726,04:24:39.573,+21 ms,ERR,0x83,"Read Coils","83 01 01 00 79 F0 83 01 14 B4 00 07 26 3C",14,ERR
727,04:24:39.617,+44 ms,MASTER,0xFD,"FM Event Request","FD 46 10 00 4F 00 00 C9 7D",9,OK
728,04:24:39.633,+16 ms,SLAVE,0x—,"FM Arbitration","FF FF FF FF FF",5,N/A
729,04:24:39.644,+11 ms,SLAVE,0xFD,"FM Event Confirm","FD 46 12 52 5D",5,OK
730,04:24:39.672,+28 ms,MASTER,0x83,"Read Holding Regs","83 03 00 61 00 02 8B F7",8,OK
731,04:24:39.697,+25 ms,ERR,0x83,"Read Holding Regs","83 03 04 00 03 00 1E 28 33 83 04 00 03 00 09 DE 2E",17,ERR
732,04:24:39.748,+51 ms,ERR,0x83,"Read Input Regs","83 04 12 0F 93 0C 08 07 1D FF FE FF FE 01 D0 00 00 00 00 00 97 3E 0A 83 04 01 0E 00 0E 0F D3",31,ERR
733,04:24:39.817,+69 ms,MASTER,0xFD,"FM Event Request","FD 46 10 00 4F 00 00 C9 7D",9,OK
734,04:24:39.833,+16 ms,SLAVE,0x—,"FM Arbitration","FF FF FF FF FF",5,N/A
735,04:24:39.844,+11 ms,SLAVE,0xFD,"FM Event Confirm","FD 46 12 52 5D",5,OK
736,04:24:39.873,+29 ms,MASTER,0x83,"Read Coils","83 01 00 00 00 0C 22 2D",8,OK
737,04:24:39.895,+22 ms,ERR,0x83,"Read Coils","83 01 02 08 00 C6 22 83 01 13 89 00 01 36 86",15,ERR
738,04:24:39.916,+21 ms,ERR,0x83,"Read Coils","83 01 01 00 79 F0 83 01 14 B4 00 07 26 3C",14,ERR
739,04:24:39.937,+21 ms,ERR,0x83,"Read Coils","83 01 01 00 79 F0 83 03 00 61 00 02 8B F7",14,ERR
740,04:24:39.962,+25 ms,ERR,0x83,"Read Holding Regs","83 03 04 00 03 00 1E 28 33 83 04 00 03 00 09 DE 2E",17,ERR
741,04:24:40.017,+54 ms,MASTER,0xFD,"FM Event Request","FD 46 10 00 4F 00 00 C9 7D",9,OK
742,04:24:40.033,+17 ms,SLAVE,0x—,"FM Arbitration","FF FF FF FF FF",5,N/A
743,04:24:40.044,+11 ms,SLAVE,0xFD,"FM Event Confirm","FD 46 12 52 5D",5,OK
744,04:24:40.073,+29 ms,MASTER,0x83,"Read Input Regs","83 04 01 0E 00 0E 0F D3",8,OK
745,04:24:40.128,+55 ms,ERR,0x83,"Read Input Regs","83 04 1C 00 06 24 66 FF FE FF FE FF FE FF FE FF FE FF FE FF FE 03 F5 00 11 07 FA 00 0A 00 0E 75 E9 83 01 00 00 00 0C 22 2D",41,ERR
746,04:24:40.151,+23 ms,ERR,0x83,"Read Coils","83 01 02 08 00 C6 22 83 01 13 89 00 01 36 86",15,ERR
747,04:24:40.172,+22 ms,ERR,0x83,"Read Coils","83 01 01 00 79 F0 83 01 14 B4 00 07 26 3C",14,ERR
748,04:24:40.217,+45 ms,MASTER,0xFD,"FM Event Request","FD 46 10 00 4F 00 00 C9 7D",9,OK
749,04:24:40.234,+17 ms,SLAVE,0x—,"FM Arbitration","FF FF FF FF FF",5,N/A
750,04:24:40.244,+11 ms,SLAVE,0xFD,"FM Event Confirm","FD 46 12 52 5D",5,OK
751,04:24:40.273,+29 ms,MASTER,0x83,"Read Holding Regs","83 03 00 61 00 02 8B F7",8,OK
752,04:24:40.298,+25 ms,ERR,0x83,"Read Holding Regs","83 03 04 00 03 00 1E 28 33 83 04 00 03 00 09 DE 2E",17,ERR
753,04:24:40.347,+49 ms,ERR,0x83,"Read Input Regs","83 04 12 0F 9E 0C 08 07 1D FF FE FF FE 01 D0 00 00 00 00 00 99 2B 5D 83 04 01 0E 00 0E 0F D3",31,ERR
754,04:24:40.417,+71 ms,MASTER,0xFD,"FM Event Request","FD 46 10 00 4F 00 00 C9 7D",9,OK
755,04:24:40.433,+16 ms,SLAVE,0x—,"FM Arbitration","FF FF FF FF FF",5,N/A
756,04:24:40.444,+11 ms,SLAVE,0xFD,"FM Event Confirm","FD 46 12 52 5D",5,OK
757,04:24:40.473,+29 ms,MASTER,0x83,"Read Coils","83 01 00 00 00 0C 22 2D",8,OK
758,04:24:40.495,+22 ms,ERR,0x83,"Read Coils","83 01 02 08 00 C6 22 83 01 13 89 00 01 36 86",15,ERR
759,04:24:40.517,+22 ms,ERR,0x83,"Read Coils","83 01 01 00 79 F0 83 01 14 B4 00 07 26 3C",14,ERR
760,04:24:40.538,+21 ms,ERR,0x83,"Read Coils","83 01 01 00 79 F0 83 03 00 61 00 02 8B F7",14,ERR
761,04:24:40.563,+25 ms,ERR,0x83,"Read Holding Regs","83 03 04 00 03 00 1E 28 33 83 04 00 03 00 09 DE 2E",17,ERR
762,04:24:40.617,+53 ms,MASTER,0xFD,"FM Event Request","FD 46 10 00 4F 00 00 C9 7D",9,OK
763,04:24:40.634,+17 ms,SLAVE,0x—,"FM Arbitration","FF FF FF FF FF",5,N/A
764,04:24:40.644,+10 ms,SLAVE,0xFD,"FM Event Confirm","FD 46 12 52 5D",5,OK
765,04:24:40.673,+29 ms,MASTER,0x83,"Read Input Regs","83 04 01 0E 00 0E 0F D3",8,OK
766,04:24:40.729,+56 ms,ERR,0x83,"Read Input Regs","83 04 1C 00 06 24 66 FF FE FF FE FF FE FF FE FF FE FF FE FF FE 03 F5 00 11 08 07 00 0A 00 0C 99 03 83 01 00 00 00 0C 22 2D",41,ERR
767,04:24:40.752,+23 ms,ERR,0x83,"Read Coils","83 01 02 08 00 C6 22 83 01 13 89 00 01 36 86",15,ERR
768,04:24:40.773,+21 ms,ERR,0x83,"Read Coils","83 01 01 00 79 F0 83 01 14 B4 00 07 26 3C",14,ERR
769,04:24:40.817,+44 ms,MASTER,0xFD,"FM Event Request","FD 46 10 00 4F 00 00 C9 7D",9,OK
770,04:24:40.834,+17 ms,SLAVE,0x—,"FM Arbitration","FF FF FF FF FF",5,N/A
771,04:24:40.845,+11 ms,SLAVE,0xFD,"FM Event Confirm","FD 46 12 52 5D",5,OK
772,04:24:40.873,+28 ms,MASTER,0x83,"Read Holding Regs","83 03 00 61 00 02 8B F7",8,OK
773,04:24:40.898,+25 ms,ERR,0x83,"Read Holding Regs","83 03 04 00 03 00 1E 28 33 83 04 00 03 00 09 DE 2E",17,ERR
774,04:24:40.948,+50 ms,ERR,0x83,"Read Input Regs","83 04 12 0F AC 0C 09 07 19 FF FE FF FE 01 D0 00 00 00 00 00 90 91 B0 83 04 01 0E 00 0E 0F D3",31,ERR
775,04:24:41.018,+69 ms,MASTER,0xFD,"FM Event Request","FD 46 10 00 4F 00 00 C9 7D",9,OK
776,04:24:41.034,+16 ms,SLAVE,0x—,"FM Arbitration","FF FF FF FF FF",5,N/A
777,04:24:41.045,+11 ms,SLAVE,0xFD,"FM Event Confirm","FD 46 12 52 5D",5,OK
778,04:24:41.074,+29 ms,MASTER,0x83,"Read Coils","83 01 00 00 00 0C 22 2D",8,OK
779,04:24:41.096,+23 ms,ERR,0x83,"Read Coils","83 01 02 08 00 C6 22 83 01 13 89 00 01 36 86",15,ERR
780,04:24:41.117,+21 ms,ERR,0x83,"Read Coils","83 01 01 00 79 F0 83 01 14 B4 00 07 26 3C",14,ERR
781,04:24:41.138,+21 ms,ERR,0x83,"Read Coils","83 01 01 00 79 F0 83 03 00 61 00 02 8B F7",14,ERR
782,04:24:41.163,+25 ms,ERR,0x83,"Read Holding Regs","83 03 04 00 03 00 1E 28 33 83 04 00 03 00 09 DE 2E",17,ERR
783,04:24:41.217,+54 ms,MASTER,0xFD,"FM Event Request","FD 46 10 00 4F 00 00 C9 7D",9,OK
784,04:24:41.234,+16 ms,SLAVE,0x—,"FM Arbitration","FF FF FF FF FF",5,N/A
785,04:24:41.245,+11 ms,SLAVE,0xFD,"FM Event Confirm","FD 46 12 52 5D",5,OK
786,04:24:41.274,+29 ms,MASTER,0x83,"Read Input Regs","83 04 01 0E 00 0E 0F D3",8,OK
787,04:24:41.330,+56 ms,ERR,0x83,"Read Input Regs","83 04 1C 00 06 24 66 FF FE FF FE FF FE FF FE FF FE FF FE FF FE 03 F5 00 11 07 F6 00 0A 00 0A 64 2B 83 01 00 00 00 0C 22 2D",41,ERR
788,04:24:41.352,+23 ms,ERR,0x83,"Read Coils","83 01 02 08 00 C6 22 83 01 13 89 00 01 36 86",15,ERR
789,04:24:41.374,+22 ms,ERR,0x83,"Read Coils","83 01 01 00 79 F0 83 01 14 B4 00 07 26 3C",14,ERR
790,04:24:41.418,+44 ms,MASTER,0xFD,"FM Event Request","FD 46 10 00 4F 00 00 C9 7D",9,OK
791,04:24:41.434,+16 ms,SLAVE,0x—,"FM Arbitration","FF FF FF FF FF",5,N/A
792,04:24:41.445,+11 ms,SLAVE,0xFD,"FM Event Confirm","FD 46 12 52 5D",5,OK
793,04:24:41.474,+29 ms,MASTER,0x83,"Read Holding Regs","83 03 00 61 00 02 8B F7",8,OK
794,04:24:41.498,+25 ms,ERR,0x83,"Read Holding Regs","83 03 04 00 03 00 1E 28 33 83 04 00 03 00 09 DE 2E",17,ERR
795,04:24:41.547,+49 ms,ERR,0x83,"Read Input Regs","83 04 12 0F B1 0C 09 07 19 FF FE FF FE 01 D0 00 00 00 00 00 90 08 E6 83 04 01 0E 00 0E 0F D3",31,ERR
796,04:24:41.618,+71 ms,MASTER,0xFD,"FM Event Request","FD 46 10 00 4F 00 00 C9 7D",9,OK
797,04:24:41.634,+16 ms,SLAVE,0x—,"FM Arbitration","FF FF FF FF FF",5,N/A
798,04:24:41.645,+11 ms,SLAVE,0xFD,"FM Event Confirm","FD 46 12 52 5D",5,OK
799,04:24:41.674,+29 ms,MASTER,0x83,"Read Coils","83 01 00 00 00 0C 22 2D",8,OK
800,04:24:41.696,+22 ms,ERR,0x83,"Read Coils","83 01 02 08 00 C6 22 83 01 13 89 00 01 36 86",15,ERR
801,04:24:41.717,+21 ms,ERR,0x83,"Read Coils","83 01 01 00 79 F0 83 01 14 B4 00 07 26 3C",14,ERR
802,04:24:41.739,+22 ms,ERR,0x83,"Read Coils","83 01 01 00 79 F0 83 03 00 61 00 02 8B F7",14,ERR
803,04:24:41.764,+25 ms,ERR,0x83,"Read Holding Regs","83 03 04 00 03 00 1E 28 33 83 04 00 03 00 09 DE 2E",17,ERR
804,04:24:41.818,+54 ms,MASTER,0xFD,"FM Event Request","FD 46 10 00 4F 00 00 C9 7D",9,OK
805,04:24:41.835,+17 ms,SLAVE,0x—,"FM Arbitration","FF FF FF FF FF",5,N/A
806,04:24:41.845,+10 ms,SLAVE,0xFD,"FM Event Confirm","FD 46 12 52 5D",5,OK
807,04:24:41.874,+30 ms,MASTER,0x83,"Read Input Regs","83 04 01 0E 00 0E 0F D3",8,OK
808,04:24:41.931,+56 ms,ERR,0x83,"Read Input Regs","83 04 1C 00 06 24 66 FF FE FF FE FF FE FF FE FF FE FF FE FF FE 03 F5 00 11 07 F8 00 0A 00 0C 8D E8 83 01 00 00 00 0C 22 2D",41,ERR
809,04:24:41.952,+22 ms,ERR,0x83,"Read Coils","83 01 02 08 00 C6 22 83 01 13 89 00 01 36 86",15,ERR
810,04:24:41.975,+22 ms,ERR,0x83,"Read Coils","83 01 01 00 79 F0 83 01 14 B4 00 07 26 3C",14,ERR
811,04:24:42.017,+43 ms,MASTER,0xFD,"FM Event Request","FD 46 10 00 4F 00 00 C9 7D",9,OK
812,04:24:42.035,+17 ms,SLAVE,0x—,"FM Arbitration","FF FF FF FF FF",5,N/A
813,04:24:42.044,+10 ms,SLAVE,0xFD,"FM Event Confirm","FD 46 12 52 5D",5,OK
814,04:24:42.074,+29 ms,MASTER,0x83,"Read Holding Regs","83 03 00 61 00 02 8B F7",8,OK
815,04:24:42.099,+25 ms,ERR,0x83,"Read Holding Regs","83 03 04 00 03 00 1E 28 33 83 04 00 03 00 09 DE 2E",17,ERR
816,04:24:42.137,+38 ms,MASTER,0x83,"Read Input Regs","83 04 12 0F 9F 0C 09 07 19 FF FE FF FE 01 D0 00 00 00 00 00 83 34 82",23,OK
817,04:24:42.148,+12 ms,SLAVE,0x83,"Read Input Regs","83 04 01 0E 00 0E 0F D3",8,OK
818,04:24:42.219,+70 ms,MASTER,0xFD,"FM Event Request","FD 46 10 00 4F 00 00 C9 7D",9,OK
819,04:24:42.235,+16 ms,SLAVE,0x—,"FM Arbitration","FF FF FF FF FF",5,N/A
820,04:24:42.245,+11 ms,SLAVE,0xFD,"FM Event Confirm","FD 46 12 52 5D",5,OK
821,04:24:42.275,+29 ms,MASTER,0x83,"Read Coils","83 01 00 00 00 0C 22 2D",8,OK
822,04:24:42.297,+22 ms,ERR,0x83,"Read Coils","83 01 02 08 00 C6 22 83 01 13 89 00 01 36 86",15,ERR
823,04:24:42.318,+21 ms,ERR,0x83,"Read Coils","83 01 01 00 79 F0 83 01 14 B4 00 07 26 3C",14,ERR
824,04:24:42.339,+21 ms,ERR,0x83,"Read Coils","83 01 01 00 79 F0 83 03 00 61 00 02 8B F7",14,ERR
825,04:24:42.364,+25 ms,ERR,0x83,"Read Holding Regs","83 03 04 00 03 00 1E 28 33 83 04 00 03 00 09 DE 2E",17,ERR
826,04:24:42.418,+55 ms,MASTER,0xFD,"FM Event Request","FD 46 10 00 4F 00 00 C9 7D",9,OK
827,04:24:42.436,+17 ms,SLAVE,0x—,"FM Arbitration","FF FF FF FF FF",5,N/A
828,04:24:42.445,+10 ms,SLAVE,0xFD,"FM Event Confirm","FD 46 12 52 5D",5,OK
829,04:24:42.475,+29 ms,MASTER,0x83,"Read Input Regs","83 04 01 0E 00 0E 0F D3",8,OK
830,04:24:42.530,+56 ms,ERR,0x83,"Read Input Regs","83 04 1C 00 06 24 66 FF FE FF FE FF FE FF FE FF FE FF FE FF FE 03 F5 00 11 08 03 00 0A 00 0B 29 01 83 01 00 00 00 0C 22 2D",41,ERR
831,04:24:42.552,+22 ms,ERR,0x83,"Read Coils","83 01 02 08 00 C6 22 83 01 13 89 00 01 36 86",15,ERR
832,04:24:42.574,+22 ms,ERR,0x83,"Read Coils","83 01 01 00 79 F0 83 01 14 B4 00 07 26 3C",14,ERR
833,04:24:42.619,+45 ms,MASTER,0xFD,"FM Event Request","FD 46 10 00 4F 00 00 C9 7D",9,OK
834,04:24:42.635,+16 ms,SLAVE,0x—,"FM Arbitration","FF FF FF FF FF",5,N/A
835,04:24:42.645,+11 ms,SLAVE,0xFD,"FM Event Confirm","FD 46 12 52 5D",5,OK
836,04:24:42.676,+31 ms,MASTER,0x83,"Read Holding Regs","83 03 00 61 00 02 8B F7",8,OK
837,04:24:42.700,+24 ms,ERR,0x83,"Read Holding Regs","83 03 04 00 03 00 1E 28 33 83 04 00 03 00 09 DE 2E",17,ERR
838,04:24:42.748,+48 ms,ERR,0x83,"Read Input Regs","83 04 12 0F C5 0C 09 07 18 FF FE FF FE 01 D0 00 00 00 00 00 83 2C B0 83 04 01 0E 00 0E 0F D3",31,ERR
839,04:24:42.819,+71 ms,MASTER,0xFD,"FM Event Request","FD 46 10 00 4F 00 00 C9 7D",9,OK
840,04:24:42.835,+16 ms,SLAVE,0x—,"FM Arbitration","FF FF FF FF FF",5,N/A
841,04:24:42.845,+11 ms,SLAVE,0xFD,"FM Event Confirm","FD 46 12 52 5D",5,OK
842,04:24:42.875,+30 ms,MASTER,0x83,"Read Coils","83 01 00 00 00 0C 22 2D",8,OK
843,04:24:42.897,+22 ms,ERR,0x83,"Read Coils","83 01 02 08 00 C6 22 83 01 13 89 00 01 36 86",15,ERR
844,04:24:42.919,+22 ms,ERR,0x83,"Read Coils","83 01 01 00 79 F0 83 01 14 B4 00 07 26 3C",14,ERR
845,04:24:42.940,+21 ms,ERR,0x83,"Read Coils","83 01 01 00 79 F0 83 03 00 61 00 02 8B F7",14,ERR
846,04:24:42.966,+26 ms,ERR,0x83,"Read Holding Regs","83 03 04 00 03 00 1E 28 33 83 04 00 03 00 09 DE 2E",17,ERR
847,04:24:43.018,+53 ms,MASTER,0xFD,"FM Event Request","FD 46 10 00 4F 00 00 C9 7D",9,OK
848,04:24:43.035,+17 ms,SLAVE,0x—,"FM Arbitration","FF FF FF FF FF",5,N/A
849,04:24:43.046,+11 ms,SLAVE,0xFD,"FM Event Confirm","FD 46 12 52 5D",5,OK
850,04:24:43.076,+29 ms,MASTER,0x83,"Read Input Regs","83 04 01 0E 00 0E 0F D3",8,OK
851,04:24:43.130,+55 ms,ERR,0x83,"Read Input Regs","83 04 1C 00 06 24 66 FF FE FF FE FF FE FF FE FF FE FF FE FF FE 03 F5 00 11 07 FB 00 0A 00 0A 49 EA 83 01 00 00 00 0C 22 2D",41,ERR
852,04:24:43.152,+22 ms,ERR,0x83,"Read Coils","83 01 02 08 00 C6 22 83 01 13 89 00 01 36 86",15,ERR
853,04:24:43.174,+22 ms,ERR,0x83,"Read Coils","83 01 01 00 79 F0 83 01 14 B4 00 07 26 3C",14,ERR
854,04:24:43.219,+45 ms,MASTER,0xFD,"FM Event Request","FD 46 10 00 4F 00 00 C9 7D",9,OK
855,04:24:43.235,+17 ms,SLAVE,0x—,"FM Arbitration","FF FF FF FF FF",5,N/A
856,04:24:43.247,+11 ms,SLAVE,0xFD,"FM Event Confirm","FD 46 12 52 5D",5,OK
857,04:24:43.275,+28 ms,MASTER,0x83,"Read Holding Regs","83 03 00 61 00 02 8B F7",8,OK
858,04:24:43.299,+25 ms,ERR,0x83,"Read Holding Regs","83 03 04 00 03 00 1E 28 33 83 04 00 03 00 09 DE 2E",17,ERR
859,04:24:43.349,+50 ms,ERR,0x83,"Read Input Regs","83 04 12 0F A1 0C 09 07 18 FF FE FF FE 01 D0 00 00 00 00 00 95 C7 A1 83 04 01 0E 00 0E 0F D3",31,ERR
860,04:24:43.419,+70 ms,MASTER,0xFD,"FM Event Request","FD 46 10 00 4F 00 00 C9 7D",9,OK
861,04:24:43.435,+16 ms,SLAVE,0x—,"FM Arbitration","FF FF FF FF FF",5,N/A
862,04:24:43.446,+10 ms,SLAVE,0xFD,"FM Event Confirm","FD 46 12 52 5D",5,OK
863,04:24:43.476,+30 ms,MASTER,0x83,"Read Coils","83 01 00 00 00 0C 22 2D",8,OK
864,04:24:43.498,+22 ms,ERR,0x83,"Read Coils","83 01 02 08 00 C6 22 83 01 13 89 00 01 36 86",15,ERR
865,04:24:43.519,+21 ms,ERR,0x83,"Read Coils","83 01 01 00 79 F0 83 01 14 B4 00 07 26 3C",14,ERR
866,04:24:43.540,+21 ms,ERR,0x83,"Read Coils","83 01 01 00 79 F0 83 03 00 61 00 02 8B F7",14,ERR
867,04:24:43.565,+25 ms,ERR,0x83,"Read Holding Regs","83 03 04 00 03 00 1E 28 33 83 04 00 03 00 09 DE 2E",17,ERR
868,04:24:43.619,+55 ms,MASTER,0xFD,"FM Event Request","FD 46 10 00 4F 00 00 C9 7D",9,OK
869,04:24:43.636,+16 ms,SLAVE,0x—,"FM Arbitration","FF FF FF FF FF",5,N/A
870,04:24:43.646,+11 ms,SLAVE,0xFD,"FM Event Confirm","FD 46 12 52 5D",5,OK
871,04:24:43.676,+29 ms,MASTER,0x83,"Read Input Regs","83 04 01 0E 00 0E 0F D3",8,OK
872,04:24:43.731,+56 ms,ERR,0x83,"Read Input Regs","83 04 1C 00 06 24 66 FF FE FF FE FF FE FF FE FF FE FF FE FF FE 03 F5 00 11 08 06 00 0A 00 0C A4 C3 83 01 00 00 00 0C 22 2D",41,ERR
873,04:24:43.754,+22 ms,ERR,0x83,"Read Coils","83 01 02 08 00 C6 22 83 01 13 89 00 01 36 86",15,ERR
874,04:24:43.775,+21 ms,ERR,0x83,"Read Coils","83 01 01 00 79 F0 83 01 14 B4 00 07 26 3C",14,ERR
875,04:24:43.820,+45 ms,MASTER,0xFD,"FM Event Request","FD 46 10 00 4F 00 00 C9 7D",9,OK
876,04:24:43.835,+16 ms,SLAVE,0x—,"FM Arbitration","FF FF FF FF FF",5,N/A
877,04:24:43.846,+10 ms,SLAVE,0xFD,"FM Event Confirm","FD 46 12 52 5D",5,OK
878,04:24:43.876,+30 ms,MASTER,0x83,"Read Holding Regs","83 03 00 61 00 02 8B F7",8,OK
879,04:24:43.900,+24 ms,ERR,0x83,"Read Holding Regs","83 03 04 00 03 00 1E 28 33 83 04 00 03 00 09 DE 2E",17,ERR
880,04:24:43.949,+49 ms,ERR,0x83,"Read Input Regs","83 04 12 0F 72 0C 0A 07 1C FF FE FF FE 01 D0 00 00 00 00 00 95 27 2D 83 04 01 0E 00 0E 0F D3",31,ERR
881,04:24:44.019,+70 ms,MASTER,0xFD,"FM Event Request","FD 46 10 00 4F 00 00 C9 7D",9,OK
882,04:24:44.035,+16 ms,SLAVE,0x—,"FM Arbitration","FF FF FF FF FF",5,N/A
883,04:24:44.046,+11 ms,SLAVE,0xFD,"FM Event Confirm","FD 46 12 52 5D",5,OK
884,04:24:44.075,+29 ms,MASTER,0x83,"Read Coils","83 01 00 00 00 0C 22 2D",8,OK
885,04:24:44.098,+22 ms,ERR,0x83,"Read Coils","83 01 02 08 00 C6 22 83 01 13 89 00 01 36 86",15,ERR
886,04:24:44.119,+22 ms,ERR,0x83,"Read Coils","83 01 01 00 79 F0 83 01 14 B4 00 07 26 3C",14,ERR
887,04:24:44.140,+21 ms,ERR,0x83,"Read Coils","83 01 01 00 79 F0 83 03 00 61 00 02 8B F7",14,ERR
888,04:24:44.165,+25 ms,ERR,0x83,"Read Holding Regs","83 03 04 00 03 00 1E 28 33 83 04 00 03 00 09 DE 2E",17,ERR
889,04:24:44.219,+54 ms,MASTER,0xFD,"FM Event Request","FD 46 10 00 4F 00 00 C9 7D",9,OK
890,04:24:44.236,+16 ms,SLAVE,0x—,"FM Arbitration","FF FF FF FF FF",5,N/A
891,04:24:44.247,+11 ms,SLAVE,0xFD,"FM Event Confirm","FD 46 12 52 5D",5,OK
892,04:24:44.275,+29 ms,MASTER,0x83,"Read Input Regs","83 04 01 0E 00 0E 0F D3",8,OK
893,04:24:44.332,+56 ms,ERR,0x83,"Read Input Regs","83 04 1C 00 06 24 66 FF FE FF FE FF FE FF FE FF FE FF FE FF FE 03 F5 00 11 07 F9 00 0A 00 0C B0 28 83 01 00 00 00 0C 22 2D",41,ERR
894,04:24:44.353,+21 ms,ERR,0x83,"Read Coils","83 01 02 08 00 C6 22 83 01 13 89 00 01 36 86",15,ERR
895,04:24:44.374,+21 ms,ERR,0x83,"Read Coils","83 01 01 00 79 F0 83 01 14 B4 00 07 26 3C",14,ERR
896,04:24:44.419,+45 ms,MASTER,0xFD,"FM Event Request","FD 46 10 00 4F 00 00 C9 7D",9,OK
897,04:24:44.436,+17 ms,SLAVE,0x—,"FM Arbitration","FF FF FF FF FF",5,N/A
898,04:24:44.446,+10 ms,SLAVE,0xFD,"FM Event Confirm","FD 46 12 52 5D",5,OK
899,04:24:44.475,+29 ms,MASTER,0x83,"Read Holding Regs","83 03 00 61 00 02 8B F7",8,OK
900,04:24:44.500,+25 ms,ERR,0x83,"Read Holding Regs","83 03 04 00 03 00 1E 28 33 83 04 00 03 00 09 DE 2E",17,ERR
901,04:24:44.538,+38 ms,MASTER,0x83,"Read Input Regs","83 04 12 0F 79 0C 09 07 19 FF FE FF FE 01 D0 00 00 00 00 00 8F 9E D0",23,OK
902,04:24:44.551,+13 ms,SLAVE,0x83,"Read Input Regs","83 04 01 0E 00 0E 0F D3",8,OK
903,04:24:44.619,+69 ms,MASTER,0xFD,"FM Event Request","FD 46 10 00 4F 00 00 C9 7D",9,OK
904,04:24:44.637,+17 ms,SLAVE,0x—,"FM Arbitration","FF FF FF FF FF",5,N/A
905,04:24:44.647,+10 ms,SLAVE,0xFD,"FM Event Confirm","FD 46 12 52 5D",5,OK
906,04:24:44.676,+29 ms,MASTER,0x83,"Read Coils","83 01 00 00 00 0C 22 2D",8,OK
907,04:24:44.697,+21 ms,ERR,0x83,"Read Coils","83 01 02 08 00 C6 22 83 01 13 89 00 01 36 86",15,ERR
908,04:24:44.719,+22 ms,ERR,0x83,"Read Coils","83 01 01 00 79 F0 83 01 14 B4 00 07 26 3C",14,ERR
909,04:24:44.740,+21 ms,ERR,0x83,"Read Coils","83 01 01 00 79 F0 83 03 00 61 00 02 8B F7",14,ERR
910,04:24:44.765,+25 ms,ERR,0x83,"Read Holding Regs","83 03 04 00 03 00 1E 28 33 83 04 00 03 00 09 DE 2E",17,ERR
911,04:24:44.820,+55 ms,MASTER,0xFD,"FM Event Request","FD 46 10 00 4F 00 00 C9 7D",9,OK
912,04:24:44.836,+16 ms,SLAVE,0x—,"FM Arbitration","FF FF FF FF FF",5,N/A
913,04:24:44.847,+11 ms,SLAVE,0xFD,"FM Event Confirm","FD 46 12 52 5D",5,OK
914,04:24:44.876,+29 ms,MASTER,0x83,"Read Input Regs","83 04 01 0E 00 0E 0F D3",8,OK
915,04:24:44.932,+56 ms,ERR,0x83,"Read Input Regs","83 04 1C 00 06 24 66 FF FE FF FE FF FE FF FE FF FE FF FE FF FE 03 F5 00 11 07 F9 00 0A 00 10 B1 E1 83 01 00 00 00 0C 22 2D",41,ERR
916,04:24:44.955,+23 ms,ERR,0x83,"Read Coils","83 01 02 08 00 C6 22 83 01 13 89 00 01 36 86",15,ERR
917,04:24:44.976,+22 ms,ERR,0x83,"Read Coils","83 01 01 00 79 F0 83 01 14 B4 00 07 26 3C",14,ERR
918,04:24:45.020,+44 ms,MASTER,0xFD,"FM Event Request","FD 46 10 00 4F 00 00 C9 7D",9,OK
919,04:24:45.036,+16 ms,SLAVE,0x—,"FM Arbitration","FF FF FF FF FF",5,N/A
920,04:24:45.048,+11 ms,SLAVE,0xFD,"FM Event Confirm","FD 46 12 52 5D",5,OK
921,04:24:45.076,+29 ms,MASTER,0x83,"Read Holding Regs","83 03 00 61 00 02 8B F7",8,OK
922,04:24:45.101,+25 ms,ERR,0x83,"Read Holding Regs","83 03 04 00 03 00 1E 28 33 83 04 00 03 00 09 DE 2E",17,ERR
923,04:24:45.150,+50 ms,ERR,0x83,"Read Input Regs","83 04 12 0F B4 0C 09 07 19 FF FE FF FE 01 D0 00 00 00 00 00 8F 5A 7F 83 04 01 0E 00 0E 0F D3",31,ERR
924,04:24:45.220,+70 ms,MASTER,0xFD,"FM Event Request","FD 46 10 00 4F 00 00 C9 7D",9,OK
925,04:24:45.236,+16 ms,SLAVE,0x—,"FM Arbitration","FF FF FF FF FF",5,N/A
926,04:24:45.247,+11 ms,SLAVE,0xFD,"FM Event Confirm","FD 46 12 52 5D",5,OK
927,04:24:45.276,+29 ms,MASTER,0x83,"Read Coils","83 01 00 00 00 0C 22 2D",8,OK
928,04:24:45.298,+22 ms,ERR,0x83,"Read Coils","83 01 02 08 00 C6 22 83 01 13 89 00 01 36 86",15,ERR
929,04:24:45.320,+22 ms,ERR,0x83,"Read Coils","83 01 01 00 79 F0 83 01 14 B4 00 07 26 3C",14,ERR
930,04:24:45.341,+21 ms,ERR,0x83,"Read Coils","83 01 01 00 79 F0 83 03 00 61 00 02 8B F7",14,ERR
931,04:24:45.366,+25 ms,ERR,0x83,"Read Holding Regs","83 03 04 00 03 00 1E 28 33 83 04 00 03 00 09 DE 2E",17,ERR
932,04:24:45.420,+54 ms,MASTER,0xFD,"FM Event Request","FD 46 10 00 4F 00 00 C9 7D",9,OK
933,04:24:45.436,+16 ms,SLAVE,0x—,"FM Arbitration","FF FF FF FF FF",5,N/A
934,04:24:45.447,+11 ms,SLAVE,0xFD,"FM Event Confirm","FD 46 12 52 5D",5,OK
935,04:24:45.476,+29 ms,MASTER,0x83,"Read Input Regs","83 04 01 0E 00 0E 0F D3",8,OK
936,04:24:45.533,+56 ms,ERR,0x83,"Read Input Regs","83 04 1C 00 06 24 66 FF FE FF FE FF FE FF FE FF FE FF FE FF FE 03 F5 00 11 08 03 00 0A 00 0D A9 03 83 01 00 00 00 0C 22 2D",41,ERR
937,04:24:45.556,+23 ms,ERR,0x83,"Read Coils","83 01 02 08 00 C6 22 83 01 13 89 00 01 36 86",15,ERR
938,04:24:45.577,+22 ms,ERR,0x83,"Read Coils","83 01 01 00 79 F0 83 01 14 B4 00 07 26 3C",14,ERR
939,04:24:45.620,+43 ms,MASTER,0xFD,"FM Event Request","FD 46 10 00 4F 00 00 C9 7D",9,OK
940,04:24:45.637,+17 ms,SLAVE,0x—,"FM Arbitration","FF FF FF FF FF",5,N/A
941,04:24:45.647,+10 ms,SLAVE,0xFD,"FM Event Confirm","FD 46 12 52 5D",5,OK
942,04:24:45.676,+29 ms,MASTER,0x83,"Read Holding Regs","83 03 00 61 00 02 8B F7",8,OK
943,04:24:45.701,+25 ms,ERR,0x83,"Read Holding Regs","83 03 04 00 03 00 1E 28 33 83 04 00 03 00 09 DE 2E",17,ERR
944,04:24:45.751,+50 ms,ERR,0x83,"Read Input Regs","83 04 12 0F 87 0C 08 07 18 FF FE FF FE 01 D0 00 00 00 00 00 8C 3D 00 83 04 01 0E 00 0E 0F D3",31,ERR
945,04:24:45.820,+69 ms,MASTER,0xFD,"FM Event Request","FD 46 10 00 4F 00 00 C9 7D",9,OK
946,04:24:45.837,+17 ms,SLAVE,0x—,"FM Arbitration","FF FF FF FF FF",5,N/A
947,04:24:45.848,+11 ms,SLAVE,0xFD,"FM Event Confirm","FD 46 12 52 5D",5,OK
948,04:24:45.877,+29 ms,MASTER,0x83,"Read Coils","83 01 00 00 00 0C 22 2D",8,OK
949,04:24:45.899,+22 ms,ERR,0x83,"Read Coils","83 01 02 08 00 C6 22 83 01 13 89 00 01 36 86",15,ERR
950,04:24:45.920,+21 ms,ERR,0x83,"Read Coils","83 01 01 00 79 F0 83 01 14 B4 00 07 26 3C",14,ERR
951,04:24:45.941,+21 ms,ERR,0x83,"Read Coils","83 01 01 00 79 F0 83 03 00 61 00 02 8B F7",14,ERR
952,04:24:45.966,+25 ms,ERR,0x83,"Read Holding Regs","83 03 04 00 03 00 1E 28 33 83 04 00 03 00 09 DE 2E",17,ERR
953,04:24:46.021,+54 ms,MASTER,0xFD,"FM Event Request","FD 46 10 00 4F 00 00 C9 7D",9,OK
954,04:24:46.037,+16 ms,SLAVE,0x—,"FM Arbitration","FF FF FF FF FF",5,N/A
955,04:24:46.048,+11 ms,SLAVE,0xFD,"FM Event Confirm","FD 46 12 52 5D",5,OK
956,04:24:46.077,+29 ms,MASTER,0x83,"Read Input Regs","83 04 01 0E 00 0E 0F D3",8,OK
957,04:24:46.132,+55 ms,ERR,0x83,"Read Input Regs","83 04 1C 00 06 24 66 FF FE FF FE FF FE FF FE FF FE FF FE FF FE 03 F5 00 11 08 06 00 0A 00 0B E5 01 83 01 00 00 00 0C 22 2D",41,ERR
958,04:24:46.155,+23 ms,ERR,0x83,"Read Coils","83 01 02 08 00 C6 22 83 01 13 89 00 01 36 86",15,ERR
959,04:24:46.176,+22 ms,ERR,0x83,"Read Coils","83 01 01 00 79 F0 83 01 14 B4 00 07 26 3C",14,ERR
960,04:24:46.221,+45 ms,MASTER,0xFD,"FM Event Request","FD 46 10 00 4F 00 00 C9 7D",9,OK
961,04:24:46.237,+16 ms,SLAVE,0x—,"FM Arbitration","FF FF FF FF FF",5,N/A
962,04:24:46.248,+11 ms,SLAVE,0xFD,"FM Event Confirm","FD 46 12 52 5D",5,OK
963,04:24:46.277,+30 ms,MASTER,0x83,"Read Holding Regs","83 03 00 61 00 02 8B F7",8,OK
964,04:24:46.302,+24 ms,ERR,0x83,"Read Holding Regs","83 03 04 00 03 00 1E 28 33 83 04 00 03 00 09 DE 2E",17,ERR
965,04:24:46.350,+48 ms,ERR,0x83,"Read Input Regs","83 04 12 0F 8E 0C 08 07 18 FF FE FF FE 01 D0 00 00 00 00 00 8C EB 52 83 04 01 0E 00 0E 0F D3",31,ERR
966,04:24:46.421,+71 ms,MASTER,0xFD,"FM Event Request","FD 46 10 00 4F 00 00 C9 7D",9,OK
967,04:24:46.437,+16 ms,SLAVE,0x—,"FM Arbitration","FF FF FF FF FF",5,N/A
968,04:24:46.448,+11 ms,SLAVE,0xFD,"FM Event Confirm","FD 46 12 52 5D",5,OK
969,04:24:46.477,+29 ms,MASTER,0x83,"Read Coils","83 01 00 00 00 0C 22 2D",8,OK
970,04:24:46.499,+22 ms,ERR,0x83,"Read Coils","83 01 02 08 00 C6 22 83 01 13 89 00 01 36 86",15,ERR
971,04:24:46.520,+21 ms,ERR,0x83,"Read Coils","83 01 01 00 79 F0 83 01 14 B4 00 07 26 3C",14,ERR
972,04:24:46.541,+21 ms,ERR,0x83,"Read Coils","83 01 01 00 79 F0 83 03 00 61 00 02 8B F7",14,ERR
973,04:24:46.567,+26 ms,ERR,0x83,"Read Holding Regs","83 03 04 00 03 00 1E 28 33 83 04 00 03 00 09 DE 2E",17,ERR
974,04:24:46.621,+54 ms,MASTER,0xFD,"FM Event Request","FD 46 10 00 4F 00 00 C9 7D",9,OK
975,04:24:46.637,+16 ms,SLAVE,0x—,"FM Arbitration","FF FF FF FF FF",5,N/A
976,04:24:46.648,+11 ms,SLAVE,0xFD,"FM Event Confirm","FD 46 12 52 5D",5,OK
977,04:24:46.677,+29 ms,MASTER,0x83,"Read Input Regs","83 04 01 0E 00 0E 0F D3",8,OK
978,04:24:46.733,+56 ms,ERR,0x83,"Read Input Regs","83 04 1C 00 06 24 66 FF FE FF FE FF FE FF FE FF FE FF FE FF FE 03 F5 00 11 08 04 00 0A 00 0A 5D 01 83 01 00 00 00 0C 22 2D",41,ERR
979,04:24:46.755,+22 ms,ERR,0x83,"Read Coils","83 01 02 08 00 C6 22 83 01 13 89 00 01 36 86",15,ERR
980,04:24:46.776,+22 ms,ERR,0x83,"Read Coils","83 01 01 00 79 F0 83 01 14 B4 00 07 26 3C",14,ERR
981,04:24:46.821,+45 ms,MASTER,0xFD,"FM Event Request","FD 46 10 00 4F 00 00 C9 7D",9,OK
982,04:24:46.838,+17 ms,SLAVE,0x—,"FM Arbitration","FF FF FF FF FF",5,N/A
983,04:24:46.848,+10 ms,SLAVE,0xFD,"FM Event Confirm","FD 46 12 52 5D",5,OK
984,04:24:46.877,+29 ms,MASTER,0x83,"Read Holding Regs","83 03 00 61 00 02 8B F7",8,OK
985,04:24:46.902,+25 ms,ERR,0x83,"Read Holding Regs","83 03 04 00 03 00 1E 28 33 83 04 00 03 00 09 DE 2E",17,ERR
986,04:24:46.950,+48 ms,ERR,0x83,"Read Input Regs","83 04 12 0F B6 0C 0B 07 1D FF FE FF FE 01 D0 00 00 00 00 00 91 F7 92 83 04 01 0E 00 0E 0F D3",31,ERR
987,04:24:47.021,+70 ms,MASTER,0xFD,"FM Event Request","FD 46 10 00 4F 00 00 C9 7D",9,OK
988,04:24:47.038,+17 ms,SLAVE,0x—,"FM Arbitration","FF FF FF FF FF",5,N/A
989,04:24:47.049,+11 ms,SLAVE,0xFD,"FM Event Confirm","FD 46 12 52 5D",5,OK
990,04:24:47.078,+29 ms,MASTER,0x83,"Read Coils","83 01 00 00 00 0C 22 2D",8,OK
991,04:24:47.100,+22 ms,ERR,0x83,"Read Coils","83 01 02 08 00 C6 22 83 01 13 89 00 01 36 86",15,ERR
992,04:24:47.121,+21 ms,ERR,0x83,"Read Coils","83 01 01 00 79 F0 83 01 14 B4 00 07 26 3C",14,ERR
993,04:24:47.142,+21 ms,ERR,0x83,"Read Coils","83 01 01 00 79 F0 83 03 00 61 00 02 8B F7",14,ERR
994,04:24:47.167,+25 ms,ERR,0x83,"Read Holding Regs","83 03 04 00 03 00 1E 28 33 83 04 00 03 00 09 DE 2E",17,ERR
995,04:24:47.221,+55 ms,MASTER,0xFD,"FM Event Request","FD 46 10 00 4F 00 00 C9 7D",9,OK
996,04:24:47.238,+16 ms,SLAVE,0x—,"FM Arbitration","FF FF FF FF FF",5,N/A
997,04:24:47.249,+11 ms,SLAVE,0xFD,"FM Event Confirm","FD 46 12 52 5D",5,OK
998,04:24:47.278,+29 ms,MASTER,0x83,"Read Input Regs","83 04 01 0E 00 0E 0F D3",8,OK
999,04:24:47.334,+56 ms,ERR,0x83,"Read Input Regs","83 04 1C 00 06 24 66 FF FE FF FE FF FE FF FE FF FE FF FE FF FE 03 F5 00 11 08 05 00 0A 00 0E 61 02 83 01 00 00 00 0C 22 2D",41,ERR
1000,04:24:47.356,+22 ms,ERR,0x83,"Read Coils","83 01 02 08 00 C6 22 83 01 13 89 00 01 36 86",15,ERR
1001,04:24:47.377,+21 ms,ERR,0x83,"Read Coils","83 01 01 00 79 F0 83 01 14 B4 00 07 26 3C",14,ERR
1002,04:24:47.422,+45 ms,MASTER,0xFD,"FM Event Request","FD 46 10 00 4F 00 00 C9 7D",9,OK
1003,04:24:47.438,+16 ms,SLAVE,0x—,"FM Arbitration","FF FF FF FF FF",5,N/A
1004,04:24:47.448,+11 ms,SLAVE,0xFD,"FM Event Confirm","FD 46 12 52 5D",5,OK
1005,04:24:47.478,+29 ms,MASTER,0x83,"Read Holding Regs","83 03 00 61 00 02 8B F7",8,OK
1006,04:24:47.502,+25 ms,ERR,0x83,"Read Holding Regs","83 03 04 00 03 00 1E 28 33 83 04 00 03 00 09 DE 2E",17,ERR
1007,04:24:47.540,+38 ms,MASTER,0x83,"Read Input Regs","83 04 12 0F 9E 0C 09 07 20 FF FE FF FE 01 D0 00 00 00 00 00 91 B9 26",23,OK
1008,04:24:47.554,+14 ms,SLAVE,0x83,"Read Input Regs","83 04 01 0E 00 0E 0F D3",8,OK
1009,04:24:47.622,+68 ms,MASTER,0xFD,"FM Event Request","FD 46 10 00 4F 00 00 C9 7D",9,OK
1010,04:24:47.638,+16 ms,SLAVE,0x—,"FM Arbitration","FF FF FF FF FF",5,N/A
1011,04:24:47.648,+11 ms,SLAVE,0xFD,"FM Event Confirm","FD 46 12 52 5D",5,OK
1012,04:24:47.678,+29 ms,MASTER,0x83,"Read Coils","83 01 00 00 00 0C 22 2D",8,OK
1013,04:24:47.700,+22 ms,ERR,0x83,"Read Coils","83 01 02 08 00 C6 22 83 01 13 89 00 01 36 86",15,ERR
1014,04:24:47.721,+22 ms,ERR,0x83,"Read Coils","83 01 01 00 79 F0 83 01 14 B4 00 07 26 3C",14,ERR
1015,04:24:47.742,+21 ms,ERR,0x83,"Read Coils","83 01 01 00 79 F0 83 03 00 61 00 02 8B F7",14,ERR
1016,04:24:47.768,+26 ms,ERR,0x83,"Read Holding Regs","83 03 04 00 03 00 1E 28 33 83 04 00 03 00 09 DE 2E",17,ERR
1017,04:24:47.822,+54 ms,MASTER,0xFD,"FM Event Request","FD 46 10 00 4F 00 00 C9 7D",9,OK
1018,04:24:47.838,+16 ms,SLAVE,0x—,"FM Arbitration","FF FF FF FF FF",5,N/A
1019,04:24:47.848,+11 ms,SLAVE,0xFD,"FM Event Confirm","FD 46 12 52 5D",5,OK
1020,04:24:47.878,+29 ms,MASTER,0x83,"Read Input Regs","83 04 01 0E 00 0E 0F D3",8,OK
1021,04:24:47.934,+56 ms,ERR,0x83,"Read Input Regs","83 04 1C 00 06 24 66 FF FE FF FE FF FE FF FE FF FE FF FE FF FE 03 F5 00 11 08 07 00 0A 00 0C 99 03 83 01 00 00 00 0C 22 2D",41,ERR
1022,04:24:47.956,+22 ms,ERR,0x83,"Read Coils","83 01 02 08 00 C6 22 83 01 13 89 00 01 36 86",15,ERR
1023,04:24:47.978,+22 ms,ERR,0x83,"Read Coils","83 01 01 00 79 F0 83 01 14 B4 00 07 26 3C",14,ERR
1024,04:24:48.022,+44 ms,MASTER,0xFD,"FM Event Request","FD 46 10 00 4F 00 00 C9 7D",9,OK
1025,04:24:48.039,+17 ms,SLAVE,0x—,"FM Arbitration","FF FF FF FF FF",5,N/A
1026,04:24:48.048,+10 ms,SLAVE,0xFD,"FM Event Confirm","FD 46 12 52 5D",5,OK
1027,04:24:48.078,+29 ms,MASTER,0x83,"Read Holding Regs","83 03 00 61 00 02 8B F7",8,OK
1028,04:24:48.102,+25 ms,ERR,0x83,"Read Holding Regs","83 03 04 00 03 00 1E 28 33 83 04 00 03 00 09 DE 2E",17,ERR
1029,04:24:48.151,+49 ms,ERR,0x83,"Read Input Regs","83 04 12 0F CB 0C 09 07 20 FF FE FF FE 01 D0 00 00 00 00 00 8D 97 AF 83 04 01 0E 00 0E 0F D3",31,ERR
1030,04:24:48.222,+70 ms,MASTER,0xFD,"FM Event Request","FD 46 10 00 4F 00 00 C9 7D",9,OK
1031,04:24:48.239,+17 ms,SLAVE,0x—,"FM Arbitration","FF FF FF FF FF",5,N/A
1032,04:24:48.248,+10 ms,SLAVE,0xFD,"FM Event Confirm","FD 46 12 52 5D",5,OK
1033,04:24:48.279,+30 ms,MASTER,0x83,"Read Coils","83 01 00 00 00 0C 22 2D",8,OK
1034,04:24:48.301,+22 ms,ERR,0x83,"Read Coils","83 01 02 08 00 C6 22 83 01 13 89 00 01 36 86",15,ERR
1035,04:24:48.324,+23 ms,ERR,0x83,"Read Coils","83 01 01 00 79 F0 83 01 14 B4 00 07 26 3C",14,ERR
1036,04:24:48.344,+21 ms,ERR,0x83,"Read Coils","83 01 01 00 79 F0 83 03 00 61 00 02 8B F7",14,ERR
1037,04:24:48.370,+25 ms,ERR,0x83,"Read Holding Regs","83 03 04 00 03 00 1E 28 33 83 04 00 03 00 09 DE 2E",17,ERR
1038,04:24:48.421,+52 ms,MASTER,0xFD,"FM Event Request","FD 46 10 00 4F 00 00 C9 7D",9,OK
1039,04:24:48.439,+17 ms,SLAVE,0x—,"FM Arbitration","FF FF FF FF FF",5,N/A
1040,04:24:48.449,+11 ms,SLAVE,0xFD,"FM Event Confirm","FD 46 12 52 5D",5,OK
1041,04:24:48.479,+29 ms,MASTER,0x83,"Read Input Regs","83 04 01 0E 00 0E 0F D3",8,OK
1042,04:24:48.534,+55 ms,ERR,0x83,"Read Input Regs","83 04 1C 00 06 24 66 FF FE FF FE FF FE FF FE FF FE FF FE FF FE 03 F5 00 10 08 03 00 0A 00 0A F8 01 83 01 00 00 00 0C 22 2D",41,ERR
1043,04:24:48.559,+25 ms,ERR,0x83,"Read Coils","83 01 02 08 00 C6 22 83 01 13 89 00 01 36 86",15,ERR
1044,04:24:48.579,+21 ms,ERR,0x83,"Read Coils","83 01 01 00 79 F0 83 01 14 B4 00 07 26 3C",14,ERR
1045,04:24:48.622,+43 ms,MASTER,0xFD,"FM Event Request","FD 46 10 00 4F 00 00 C9 7D",9,OK
1046,04:24:48.639,+16 ms,SLAVE,0x—,"FM Arbitration","FF FF FF FF FF",5,N/A
1047,04:24:48.649,+11 ms,SLAVE,0xFD,"FM Event Confirm","FD 46 12 52 5D",5,OK
1048,04:24:48.678,+28 ms,MASTER,0x83,"Read Holding Regs","83 03 00 61 00 02 8B F7",8,OK
1049,04:24:48.702,+24 ms,ERR,0x83,"Read Holding Regs","83 03 04 00 03 00 1E 28 33 83 04 00 03 00 09 DE 2E",17,ERR
1050,04:24:48.752,+50 ms,ERR,0x83,"Read Input Regs","83 04 12 0F 78 0C 09 07 1B FF FE FF FE 01 D0 00 00 00 00 00 8D 49 C3 83 04 01 0E 00 0E 0F D3",31,ERR
1051,04:24:48.822,+70 ms,MASTER,0xFD,"FM Event Request","FD 46 10 00 4F 00 00 C9 7D",9,OK
1052,04:24:48.839,+16 ms,SLAVE,0x—,"FM Arbitration","FF FF FF FF FF",5,N/A
1053,04:24:48.849,+11 ms,SLAVE,0xFD,"FM Event Confirm","FD 46 12 52 5D",5,OK
1054,04:24:48.878,+29 ms,MASTER,0x83,"Read Coils","83 01 00 00 00 0C 22 2D",8,OK
1055,04:24:48.901,+22 ms,ERR,0x83,"Read Coils","83 01 02 08 00 C6 22 83 01 13 89 00 01 36 86",15,ERR
1056,04:24:48.922,+21 ms,ERR,0x83,"Read Coils","83 01 01 00 79 F0 83 01 14 B4 00 07 26 3C",14,ERR
1057,04:24:48.944,+22 ms,ERR,0x83,"Read Coils","83 01 01 00 79 F0 83 03 00 61 00 02 8B F7",14,ERR
1058,04:24:48.969,+25 ms,ERR,0x83,"Read Holding Regs","83 03 04 00 03 00 1E 28 33 83 04 00 03 00 09 DE 2E",17,ERR
1059,04:24:49.022,+54 ms,MASTER,0xFD,"FM Event Request","FD 46 10 00 4F 00 00 C9 7D",9,OK
1060,04:24:49.039,+16 ms,SLAVE,0x—,"FM Arbitration","FF FF FF FF FF",5,N/A